 00 00 00 00 00 |................

00 00 00 00 00 00 00 00 00 00 00 00 00 00 00 00 |................

00 00 00 00 00 00 00 00 00 00 00 00 00 00 00 00 |................

00 00 00 00 00 00 00 00 00 00 00 00 00 00 00 00 |................

00 00 00 00 00 00 00 00 00 00 00 00 00 00 00 00 |................

00 00 00 00 00 00 00 00 00 00 00 00 00 00 00 00 |................

00 00 00 00 9F B5                               |.....?

[2023-09-07 04:09:39.311] 

[2023-09-07 04:09:39.312] MBS:addr: 1, regaddr = 3501, regnum = 100

[2023-09-07 04:09:39.312] Send Modbus data:



01 04 35 01 00 64 AF ED                         |..5..d..

[2023-09-07 04:09:40.434] MBS:addr: 1, regaddr = 3501, regnum = 100

[2023-09-07 04:09:40.434] Send Modbus data:



01 04 35 01 00 64 AF ED                         |..5..d..

[2023-09-07 04:09:40.558] ↑↑↑收到待解析设备的数据



01 04 C8 00 00 00 00 00 00 00 00 00 00 00 00 00 |..?.............

00 00 00 00 00 00 00 00 00 00 00 00 00 00 00 00 |................

00 00 00 00 00 00 00 00 00 00 00 00 00 00 00 00 |................

00 00 00 00 00 00 00 00 00 00 00 00 00 00 00 00 |................

00 00 00 00 00 00 00 00 00 00 00 00 00 00 00 00 |................

00 00 00 00 00 00 00 00 00 00 00 00 00 00 00 00 |................

00 00 00 00 00 00 00 00 00 00 00 00 00 00 00 00 |................

00 00 00 00 00 00 00 00 00 00 00 00 00 00 00 00 |................

00 00 00 00 00 00 00 00 00 00 00 00 00 FC 06 00 |................

00 00 00 00 00 00 00 00 00 00 00 00 00 00 00 00 |................

00 00 00 00 00 00 00 00 00 00 00 00 00 00 00 00 |................

00 00 00 00 00 00 00 00 00 00 00 00 00 00 00 00 |................

00 00 00 00 9F B5                               |.....?

[2023-09-07 04:09:40.639] 

[2023-09-07 04:09:40.640] MBS:addr: 1, regaddr = 3565, regnum = 100

[2023-09-07 04:09:40.640] Send Modbus data:



01 04 35 65 00 64 EE 32                         |..5e.d.2

[2023-09-07 04:09:40.762] MBS:addr: 1, regaddr = 3565, regnum = 100

[2023-09-07 04:09:40.762] Send Modbus data:



01 04 35 65 00 64 EE 32                         |..5e.d.2

[2023-09-07 04:09:40.886] MBS:addr: 1, regaddr = 3565, regnum = 100

[2023-09-07 04:09:40.886] Send Modbus data:



01 04 35 65 00 64 EE 32                         |..5e.d.2

[2023-09-07 04:09:40.010] MBS:addr: 1, regaddr = 3565, regnum = 100

[2023-09-07 04:09:40.010] Send Modbus data:



01 04 35 65 00 64 EE 32                         |..5e.d.2

[2023-09-07 04:09:40.134] MBS:addr: 1, regaddr = 3565, regnum = 100

[2023-09-07 04:09:40.134] Send Modbus data:



01 04 35 65 00 64 EE 32                         |..5e.d.2

[2023-09-07 04:09:40.258] ↑↑↑收到待解析设备的数据



01 04 70 00 00 00 00 00 00 00 00 00 00 00 00 00 |..p.............

00 00 00 00 00 00 00 00 00 00 00 00 00 00 00 00 |................

00 00 00 00 00 00 00 00 00 00 00 00 00 00 00 00 |................

00 00 00 00 00 00 00 00 00 00 00 00 00 00 00 00 |................

00 00 00 00 00 00 00 00 00 00 00 00 00 00 00 00 |................

00 00 00 00 00 00 00 00 00 00 00 00 00 00 00 00 |................

00 00 00 00 00 00 00 00 00 00 00 00 00 00 00 00 |................

00 00 00 61 F3 01 04 C8 00 00 00 00 00 00 00 00 |...a?..?........

00 00 00 00 00 00 00 00 00 00 00 00 60 00 00 00 |............`...

00 00 00 00 00 00 00 00 00 00 00 00 00 00 00 00 |................

00 00 00 00 00 00 00 00 00 00 00 00 00 00 00 00 |................

00 00 00 00 00 00 00 00 00 00 00 00 00 00 00 00 |................

00 00 00 00 00 00 00 00 00 00 00 00 00 00 00 00 |................

00 00 00 00 00 00 00 00 00 00 00 00 00 00 00 00 |................

00 00 00 00 00 00 00 00 00 00 00 00 00 00 00 00 |................

00 00 00 00 00 00 00 00 00 00 00 00 00 00 00 00 |................

60 00 00 00 00 00 00 00 00 00 00 00 00 00 00 00 |`...............

00 00 00 00 00 00 00 00 00 00 00 00 00 00 00 00 |................

00 00 00 00 00 00 00 00 00 00 00 00 00 00 00 00 |................

9F B5                                           |.?

[2023-09-07 04:09:40.340] 

[2023-09-07 04:09:40.341] MBS:addr: 1, regaddr = 35c9, regnum = 56

[2023-09-07 04:09:40.341] Send Modbus data:



01 04 35 C9 00 38 2E 2A                         |..5..8.*

[2023-09-07 04:09:41.466] MBS:addr: 1, regaddr = 35c9, regnum = 56

[2023-09-07 04:09:41.466] Send Modbus data:



01 04 35 C9 00 38 2E 2A                         |..5..8.*

[2023-09-07 04:09:41.590] ↑↑↑收到待解析设备的数据



01 04 C8 00 00 00 00 00 00 00 00 00 00 00 00 00 |..?.............

00 00 00 00 00 00 00 00 00 00 00 00 00 00 00 00 |................

00 00 00 00 00 00 00 00 00 00 00 00 00 00 00 00 |................

00 00 00 00 00 00 00 00 00 00 00 00 00 00 00 00 |................

00 00 00 00 00 00 00 00 00 00 00 00 00 00 00 00 |................

00 00 00 00 F8 03 00 00 00 00 00 00 00 00 00 00 |................

00 00 00 00 00 00 00 00 00 00 00 00 00 00 00 00 |................

00 00 00 00 00 00 00 00 00 00 00 00 00 00 00 00 |................

00 00 00 00 00 00 00 00 00 00 00 00 00 00 00 00 |................

00 00 00 00 00 00 00 00 00 00 00 00 00 00 00 00 |................

00 00 00 00 00 00 00 00 00 00 00 00 00 00 00 00 |................

00 00 00 00 00 00 00 00 00 00 00 00 00 00 00 00 |................

00 00 00 00 9F B5                               |.....?

[2023-09-07 04:09:41.672] 

[2023-09-07 04:09:41.673] MBS:addr: 1, regaddr = 3601, regnum = 100

[2023-09-07 04:09:41.673] Send Modbus data:



01 04 36 01 00 64 AF A9                         |..6..d..

[2023-09-07 04:09:41.798] MBS:addr: 1, regaddr = 3601, regnum = 100

[2023-09-07 04:09:41.798] Send Modbus data:



01 04 36 01 00 64 AF A9                         |..6..d..

[2023-09-07 04:09:41.922] ↑↑↑收到待解析设备的数据



01 04 C8 00 00 00 00 00 00 00 00 00 00 00 00 00 |..?.............

00 00 00 00 00 00 00 00 00 00 FC 0C 00 00 00 00 |................

00 00 00 00 00 00 00 00 00 00 00 00 00 00 00 00 |................

00 00 00 00 00 00 00 00 00 00 00 00 00 00 00 00 |................

00 00 00 00 00 00 00 00 00 00 00 00 00 00 00 00 |................

00 00 00 00 00 00 00 00 00 00 00 00 00 00 00 00 |................

00 00 00 00 00 00 00 00 00 00 00 00 00 00 00 00 |................

00 00 00 00 00 00 00 00 00 00 00 00 00 00 00 00 |................

00 00 00 00 00 00 00 00 00 00 00 00 00 00 00 00 |................

00 00 00 00 00 00 00 00 00 00 00 00 00 00 00 00 |................

00 00 00 00 00 00 00 00 00 00 00 00 00 00 00 00 |................

00 00 00 00 00 00 00 00 00 00 00 00 00 00 00 00 |................

00 00 00 00 9F B5                               |.....?

[2023-09-07 04:09:41.003] 

[2023-09-07 04:09:41.004] MBS:addr: 1, regaddr = 3665, regnum = 100

[2023-09-07 04:09:41.004] Send Modbus data:



01 04 36 65 00 64 EE 76                         |..6e.d.v

[2023-09-07 04:09:41.126] MBS:addr: 1, regaddr = 3665, regnum = 100

[2023-09-07 04:09:41.126] Send Modbus data:



01 04 36 65 00 64 EE 76                         |..6e.d.v

[2023-09-07 04:09:41.250] ↑↑↑收到待解析设备的数据



01 04 70 00 00 00 00 00 00 00 00 00 00 00 00 00 |..p.............

00 00 00 00 00 00 00 00 00 00 00 00 00 00 00 00 |................

F8 03 00 00 00 00 00 00 00 00 00 00 00 00 00 00 |................

00 00 00 00 00 00 00 00 00 00 00 00 00 00 00 00 |................

00 00 00 00 00 00 00 00 00 00 00 00 00 00 00 00 |................

00 00 00 00 00 00 00 00 00 00 00 00 00 00 00 00 |................

00 00 00 00 00 00 00 00 00 00 00 00 61 F3       |............a?

[2023-09-07 04:09:41.331] 

[2023-09-07 04:09:41.331] MBS:addr: 1, regaddr = 36c9, regnum = 56

[2023-09-07 04:09:41.331] Send Modbus data:



01 04 36 C9 00 38 2E 6E                         |..6..8.n

[2023-09-07 04:09:41.454] MBS:addr: 1, regaddr = 36c9, regnum = 56

[2023-09-07 04:09:41.454] Send Modbus data:



01 04 36 C9 00 38 2E 6E                         |..6..8.n

[2023-09-07 04:09:42.578] ↑↑↑收到待解析设备的数据



01 04 C8 00 00 00 00 00 00 00 00 00 00 00 00 00 |..?.............

00 00 00 00 00 00 00 FF 18 00 00 00 00 00 00 00 |................

00 00 00 00 00 00 00 00 00 00 00 00 00 00 00 00 |................

00 00 00 00 00 00 00 00 00 00 00 00 00 00 00 00 |................

00 00 00 00 00 00 00 00 00 00 00 00 00 00 00 00 |................

00 00 00 00 00 00 00 00 00 00 00 00 00 00 00 00 |................

00 00 00 00 00 00 00 00 00 00 00 00 00 00 00 00 |................

00 00 00 00 00 00 00 00 00 00 00 00 00 00 00 00 |................

00 00 00 00 00 00 00 00 00 00 00 00 00 00 00 00 |................

00 00 00 00 00 00 00 00 00 00 00 00 00 00 00 00 |................

00 00 00 00 00 00 00 00 00 00 00 00 00 00 00 00 |................

00 00 00 00 00 00 00 00 00 00 00 00 00 00 00 00 |................

00 00 FC                                        |...

[2023-09-07 04:09:42.659] 

[2023-09-07 04:09:42.660] MBS:addr: 1, regaddr = 3701, regnum = 100

[2023-09-07 04:09:42.660] Send Modbus data:



01 04 37 01 00 64 AE 55                         |..7..d.U

[2023-09-07 04:09:42.782] MBS:addr: 1, regaddr = 3701, regnum = 100

[2023-09-07 04:09:42.782] Send Modbus data:



01 04 37 01 00 64 AE 55                         |..7..d.U

[2023-09-07 04:09:42.906] MBS:addr: 1, regaddr = 3701, regnum = 100

[2023-09-07 04:09:42.906] Send Modbus data:



01 04 37 01 00 64 AE 55                         |..7..d.U

[2023-09-07 04:09:42.030] MBS:addr: 1, regaddr = 3701, regnum = 100

[2023-09-07 04:09:42.030] Send Modbus data:



01 04 37 01 00 64 AE 55                         |..7..d.U

[2023-09-07 04:09:42.154] MBS:addr: 1, regaddr = 3701, regnum = 100

[2023-09-07 04:09:42.154] Send Modbus data:



01 04 37 01 00 64 AE 55                         |..7..d.U

[2023-09-07 04:09:42.278] MBS:addr: 1, regaddr = 3701, regnum = 100

[2023-09-07 04:09:42.278] Send Modbus data:



01 04 37 01 00 64 AE 55                         |..7..d.U

[2023-09-07 04:09:42.410] MBS:addr: 1, regaddr = 3701, regnum = 100

[2023-09-07 04:09:42.410] Send Modbus data:



01 04 37 01 00 64 AE 55                         |..7..d.U

[2023-09-07 04:09:42.534] ↑↑↑收到待解析设备的数据



01 04 C8 00 00 00 00 00 00 00 00 00 00 00 00 00 |..?.............

00 00 00 00 00 00 00 00 00 00 00 00 00 00 00 00 |................

00 00 00 00 00 00 00 00 00 00 00 00 00 00 00 00 |................

00 00 00 00 00 00 00 00 00 00 00 00 00 00 00 00 |................

00 00 00 00 00 00 00 00 00 00 00 00 00 00 00 00 |................

00 00 00 00 00 00 00 00 00 00 00 00 00 00 00 00 |................

00 00 00 00 00 00 00 00 00 00 00 00 00 00 00 00 |................

00 00 00 00 00 00 00 00 00 00 00 00 00 00 00 00 |................

00 00 00 00 00 00 00 00 00 00 00 00 00 00 00 00 |................

00 00 00 00 00 00 00 00 00 00 00 00 00 00 00 00 |................

00 00 00 00 00 00 00 00 00 00 00 00 00 00 00 00 |................

00 00 00 00 00 00 00 00 00 00 00 00 00 00 00 00 |................

00 00 00 00 00 00 00 00 00 00 00 9F B5 01 04 70 |............?..p

00 00 00 00 00 00 00 00 00 00 00 00 00 00 00 00 |................

00 00 00 00 00 00 00 00 00 00 F0 00 00 00 00 00 |..........?.....

00 00 00 00 00 00 00 00 00 00 00 00 00 00 00 00 |................

00 00 00 00 00 00 00 00 00 00 00 00 00 00 00 00 |................

00 00 00 00 00 00 00 00 00 00 00 00 00 00 00 00 |................

00 00 00 00 00 00 00 00 00 00 00 00 00 00 00 00 |................

00 00 00 00 00 00 00 00 00 61 F3 01 04 C8 00 00 |.........a?..?..

00 00 00 00 00 00 00 00 00 00 00 00 00 00 00 00 |................

00 00 00 00 00 00 00 00 00 00 00 00 00 00 00 00 |................

00 00 00 00 00 00 00 00 00 00 00 00 00 00 00 00 |................

00 00 00 00 00 00 00 00 00 00 00 00 00 00 00 00 |................

00 00 00 00 00 00 00 00 00 00 00 00 00 00 00 60 |...............`

00 00 00 00 00 00 00 00 00 00 00 00 00 00 00 00 |................

00 00 00 00 00 00 00 00 00 00 00 00 00 00 00 00 |................

00 00 00 00 00 00 00 00 00 00 00 00 00 00 00 00 |................

00 00 00 00 00 00 00 00 00 00 00 00 00 00 00 00 |................

00 00 00 00 00 00 00 00 00 00 00 00 00 00 00 00 |................

00 00 00 00 00 00 00 00 00 00 00 00 00 00 00 00 |................

00 00 00 00 00 00 00 00 00 00 00 00 00 00 9F B5 |...............?

[2023-09-07 04:09:43.695] 

[2023-09-07 04:09:43.695] LD6910 解析成功

[2023-09-07 04:09:43.696] MBS:addr: 1, regaddr = 3765, regnum = 100

[2023-09-07 04:09:43.696] Send Modbus data:



01 04 37 65 00 64 EF 8A                         |..7e.d..

[2023-09-07 04:09:43.818] MBS:addr: 1, regaddr = 3765, regnum = 100

[2023-09-07 04:09:43.818] Send Modbus data:



01 04 37 65 00 64 EF 8A                         |..7e.d..

[2023-09-07 04:09:43.942] ↑↑↑收到待解析设备的数据



01 04 C8 00 00 00 00 00 00 00 00 00 00 00 00 00 |..?.............

00 00 00 00 00 00 00 00 00 80 00 00 00 00 00 00 |................

00 00 00 00 00 00 00 00 00 00 00 00 00 00 00 00 |................

00 00 00 00 00 00 00 00 00 00 00 00 00 00 00 00 |................

00 00 00 00 00 00 00 00 00 00 00 00 00 00 00 00 |................

00 00 00 00 00 00 00 00 00 00 00 00 00 00 00 00 |................

00 00 00 00 00 00 00 00 00 00 00 00 00 00 00 00 |................

00 00 00 00 00 00 00 00 00 00 00 00 00 00 00 00 |................

00 00 00 00 00 00 00 00 00 00 00 00 00 80 00 00 |................

00 00 00 00 00 00 00 00 00 00 00 00 00 00 00 00 |................

00 00 00 00 00 00 00 00 00 00 00 00 00 00 00 00 |................

00 00 00 00 00 00 00 00 00 00 00 00 00 9F B5    |..............?

[2023-09-07 04:09:43.023] 

[2023-09-07 04:09:43.024] MBS:addr: 1, regaddr = 37c9, regnum = 56

[2023-09-07 04:09:43.024] Send Modbus data:



01 04 37 C9 00 38 2F 92                         |..7..8/.

[2023-09-07 04:09:43.146] ↑↑↑收到待解析设备的数据



Connect cloud.fourfaith.com:9103
unknown host cloud.fourfaith.com
01 04 C8 00 00 00 00 00 00 00 00 00 00 00 00 00 |..?.............

00 00 00 00 00 00 00 00 00 00 00 00 00 00 00 00 |................

00 00 00 00 00 00 00 00 00 00 00 00 00 00 00 00 |................

00 00 00 00 00 00 00 00 00 00 00 00 00 00 00 00 |................

00 00 00 00 00 00 00 00 00 00 00 00 00 00 00 00 |................

00 00 00 00 00 00 00 00 00 00 00 00 00 00 00 00 |................

F0 00 00 00 00 00 00 00 00 00 00 00 00 00 00 00 |?...............

00 00 00 00 00 00 00 00 00 00 00 00 00 00 00 00 |................

00 00 00 00 00 00 00 00 00 00 00 00 00 00 00 00 |................

00 00 00 00 00 00 00 00 00 00 00 00 00 00 00 00 |................

00 00 00 00 00 00 00 00 00 00 00 00 00 00 00 00 |................

00 00 00 00 00 00 00 00 00 00 00 00 00 00 00 00 |................

00 00 00 00 9F B5                               |.....?

[2023-09-07 04:09:43.227] 

[2023-09-07 04:09:43.228] MBS:addr: 1, regaddr = 3801, regnum = 100

[2023-09-07 04:09:43.228] Send Modbus data:



01 04 38 01 00 64 AD 41                         |..8..d.A

[2023-09-07 04:09:43.350] MBS:addr: 1, regaddr = 3801, regnum = 100

[2023-09-07 04:09:43.350] Send Modbus data:



01 04 38 01 00 64 AD 41                         |..8..d.A

[2023-09-07 04:09:44.474] ↑↑↑收到待解析设备的数据



01 04 C8 00 00 00 00 00 00 00 00 00 00 00 00 00 |..?.............

00 80 00 00 00 00 00 00 00 00 00 00 00 00 00 00 |................

00 00 00 00 00 00 00 00 00 00 00 00 00 00 00 00 |................

00 00 00 00 00 00 00 00 00 00 00 00 00 00 00 00 |................

00 00 00 00 00 00 00 00 00 00 00 00 00 00 00 00 |................

00 00 00 00 00 00 00 00 00 00 00 00 00 00 00 00 |................

00 00 00 00 00 00 00 00 00 00 00 00 00 00 00 00 |................

00 00 00 00 00 00 00 00 00 00 00 00 00 00 00 00 |................

00 00 00 00 00 00 00 00 00 00 00 00 00 00 00 00 |................

00 00 00 00 00 00 00 00 00 00 00 00 00 00 00 00 |................

00 00 00 00 00 00 00 00 00 00 00 00 00 00 00 00 |................

00 00 00 00 00 00 00 00 00 00 00 00 00 00 00 00 |................

00 00 00 00 9F B5                               |.....?

[2023-09-07 04:09:44.555] 

[2023-09-07 04:09:44.556] MBS:addr: 1, regaddr = 3865, regnum = 100

[2023-09-07 04:09:44.556] Send Modbus data:



01 04 38 65 00 64 EC 9E                         |..8e.d..

[2023-09-07 04:09:44.678] MBS:addr: 1, regaddr = 3865, regnum = 100

[2023-09-07 04:09:44.678] Send Modbus data:



01 04 38 65 00 64 EC 9E                         |..8e.d..

[2023-09-07 04:09:44.802] ↑↑↑收到待解析设备的数据



01 04 70 00 00 00 00 00 00 00 00 00 00 00 00 00 |..p.............

00 00 00 00 00 00 00 00 00 00 00 00 00 00 00 00 |................

00 00 00 00 00 00 00 00 00 00 00 00 00 00 00 00 |................

00 00 00 00 00 00 00 00 00 00 00 00 00 00 00 00 |................

00 00 00 00 00 00 00 00 00 00 00 00 00 00 00 00 |................

00 00 00 00 00 00 00 00 00 00 00 00 00 00 FC 0C |................

00 00 00 00 00 00 00 00 00 00 00 00 61 F3       |............a?

[2023-09-07 04:09:44.883] 

[2023-09-07 04:09:44.883] MBS:addr: 1, regaddr = 38c9, regnum = 56

[2023-09-07 04:09:44.883] Send Modbus data:



01 04 38 C9 00 38 2C 86                         |..8..8,.

[2023-09-07 04:09:44.006] MBS:addr: 1, regaddr = 38c9, regnum = 56

[2023-09-07 04:09:44.006] Send Modbus data:



01 04 38 C9 00 38 2C 86                         |..8..8,.

[2023-09-07 04:09:44.130] ↑↑↑收到待解析设备的数据



01 04 C8 00 00 00 00 00 00 00 00 00 00 00 00 00 |..?.............

00 00 00 00 00 00 00 00 00 00 00 00 00 00 00 00 |................

00 00 00 00 00 00 00 00 00 00 00 00 00 00 00 00 |................

00 00 00 00 00 00 00 00 00 00 00 00 00 00 00 00 |................

00 00 00 00 00 00 00 00 00 00 00 F8 03 00 00 00 |................

00 00 00 00 00 00 00 00 00 00 00 00 00 00 00 00 |................

00 00 00 00 00 00 00 00 00 00 00 00 00 00 00 00 |................

00 00 00 00 00 00 00 00 00 00 00 00 00 00 00 00 |................

00 00 00 00 00 00 00 00 00 00 00 00 00 00 00 00 |................

00 00 00 00 00 00 00 00 00 00 00 00 00 00 00 00 |................

00 00 00 00 00 00 00 00 00 00 00 00 00 00 00 00 |................

00 00 00 00 00 00 00 00 00 00 00 FE 0C 9F B5    |..............?

[2023-09-07 04:09:44.211] 

[2023-09-07 04:09:44.211] MBS:addr: 1, regaddr = 3901, regnum = 100

[2023-09-07 04:09:44.212] Send Modbus data:



01 04 39 01 00 64 AC BD                         |..9..d..

[2023-09-07 04:09:44.334] MBS:addr: 1, regaddr = 3901, regnum = 100

[2023-09-07 04:09:44.334] Send Modbus data:



01 04 39 01 00 64 AC BD                         |..9..d..

[2023-09-07 04:09:44.458] ↑↑↑收到待解析设备的数据



01 04 70 00 00 00 00 00 00 00 00 00 00 00 00 00 |..p.............

00 00 00 00 00 00 00 00 00 00 00 00 00 00 00 00 |................

00 00 00 00 00 00 00 00 00 00 00 00 00 00 00 00 |................

00 00 00 00 00 00 00 00 00 00 00 00 00 00 00 00 |................

00 00 00 00 00 00 00 00 00 00 00 00 00 00 00 00 |................

00 00 00 00 00 00 00 00 00 00 00 00 00 00 00 00 |................

00 00 00 00 00 00 00 00 FC 0C 00 00 61 F3       |............a?

[2023-09-07 04:09:45.539] 

[2023-09-07 04:09:45.539] MBS:addr: 1, regaddr = 3965, regnum = 100

[2023-09-07 04:09:45.539] Send Modbus data:



01 04 39 65 00 64 ED 62                         |..9e.d.b

[2023-09-07 04:09:45.662] MBS:addr: 1, regaddr = 3965, regnum = 100

[2023-09-07 04:09:45.662] Send Modbus data:



01 04 39 65 00 64 ED 62                         |..9e.d.b

[2023-09-07 04:09:45.786] MBS:addr: 1, regaddr = 3965, regnum = 100

[2023-09-07 04:09:45.786] Send Modbus data:



01 04 39 65 00 64 ED 62                         |..9e.d.b

[2023-09-07 04:09:45.910] ↑↑↑收到待解析设备的数据



01 04 C8 00 00 00 00 00 00 00 00 00 00 00 00 00 |..?.............

00 00 00 00 00 00 00 00 00 00 00 00 00 00 00 00 |................

00 00 00 00 00 00 00 00 00 00 00 00 00 00 00 00 |................

00 00 00 00 00 00 00 00 00 00 00 00 00 00 00 00 |................

00 00 00 00 00 00 00 00 00 00 00 00 00 00 00 00 |................

00 00 00 00 00 00 00 00 00 00 00 00 00 00 00 00 |................

00 00 00 00 00 00 00 00 00 00 00 00 00 00 00 00 |................

00 F8 06 00 00 00 00 00 00 00 00 00 00 00 00 00 |................

00 00 00 00 00 00 00 00 00 00 00 00 00 00 00 00 |................

00 00 00 00 00 00 00 00 00 00 00 00 00 00 00 00 |................

00 00 00 00 00 00 00 00 00 00 00 00 00 00 00 00 |................

00 00 00 00 00 00 00 00 00 00 00 00 00 00 00 00 |................

00 00 00 00 9F B5                               |.....?

[2023-09-07 04:09:45.992] 

[2023-09-07 04:09:45.993] MBS:addr: 1, regaddr = 39c9, regnum = 56

[2023-09-07 04:09:45.993] Send Modbus data:



01 04 39 C9 00 38 2D 7A                         |..9..8-z

[2023-09-07 04:09:45.118] MBS:addr: 1, regaddr = 39c9, regnum = 56

[2023-09-07 04:09:45.118] Send Modbus data:



01 04 39 C9 00 38 2D 7A                         |..9..8-z

[2023-09-07 04:09:45.242] ↑↑↑收到待解析设备的数据



01 04 C8 00 00 00 00 00 00 00 00 00 00 00 00 00 |..?.............

00 00 00 00 00 00 00 00 00 00 00 00 00 00 00 00 |................

00 00 00 00 00 00 00 00 00 00 00 00 00 00 00 00 |................

00 00 00 00 00 00 00 00 00 00 00 00 00 00 00 00 |................

00 00 00 00 00 00 00 00 00 00 00 00 00 00 00 00 |................

00 00 00 00 00 C0 00 00 00 00 00 00 00 00 00 00 |.....?..........

00 00 00 00 00 00 00 00 00 00 00 00 00 00 00 00 |................

00 00 00 00 00 00 00 00 00 00 00 00 00 00 00 00 |................

00 00 00 00 00 00 00 00 00 00 00 00 00 00 00 00 |................

00 00 00 00 00 00 00 00 00 00 00 00 00 00 00 00 |................

00 00 00 00 00 00 00 00 00 00 00 00 00 00 00 00 |................

00 00 00 00 00 00 00 00 00 00 00 00 00 00 00 00 |................

00 00 00 00 9F B5                               |.....?

[2023-09-07 04:09:45.323] 

[2023-09-07 04:09:45.324] MBS:addr: 1, regaddr = 3a01, regnum = 100

[2023-09-07 04:09:45.324] Send Modbus data:



01 04 3A 01 00 64 AC F9                         |..:..d..

[2023-09-07 04:09:46.446] MBS:addr: 1, regaddr = 3a01, regnum = 100

[2023-09-07 04:09:46.446] Send Modbus data:



01 04 3A 01 00 64 AC F9                         |..:..d..

[2023-09-07 04:09:46.570] ↑↑↑收到待解析设备的数据



01 04 C8 00 00 00 00 00 00 00 00 00 00 00 00 00 |..?.............

00 00 00 00 00 00 00 00 00 00 00 00 00 00 00 00 |................

00 00 00 00 00 00 00 00 00 00 00 00 00 00 00 00 |................

00 00 00 00 00 00 00 00 00 00 00 00 00 00 00 00 |................

00 00 00 00 00 00 00 00 00 00 00 00 00 00 00 00 |................

00 00 00 00 00 00 00 00 00 F0 00 00 00 00 00 00 |.........?......

00 00 00 00 00 00 00 00 00 00 00 00 00 00 00 00 |................

00 00 00 00 00 00 00 00 00 00 00 00 00 00 00 00 |................

00 00 00 00 00 00 00 00 00 00 00 00 00 00 00 00 |................

00 00 00 00 00 00 00 00 00 00 00 00 00 00 00 00 |................

00 00 00 00 00 00 00 00 00 00 00 00 00 00 00 00 |................

00 00 00 00 00 00 00 00 00 00 00 00 00 00 00 00 |................

00 00 00 00 9F B5                               |.....?

[2023-09-07 04:09:46.651] 

[2023-09-07 04:09:46.652] MBS:addr: 1, regaddr = 3a65, regnum = 100

[2023-09-07 04:09:46.652] Send Modbus data:



01 04 3A 65 00 64 ED 26                         |..:e.d.&

[2023-09-07 04:09:46.774] MBS:addr: 1, regaddr = 3a65, regnum = 100

[2023-09-07 04:09:46.774] Send Modbus data:



01 04 3A 65 00 64 ED 26                         |..:e.d.&

[2023-09-07 04:09:46.898] ↑↑↑收到待解析设备的数据



01 04 70 00 00 00 00 00 00 00 00 00 00 00 00 00 |..p.............

00 00 00 00 00 00 00 00 00 00 00 00 00 00 00 00 |................

00 00 00 00 00 00 00 00 00 00 00 00 00 00 00 00 |................

00 00 00 00 00 00 00 00 00 00 00 00 00 00 00 00 |................

00 00 00 00 00 00 00 00 00 00 00 00 00 00 00 00 |................

00 00 00 00 00 00 00 00 00 00 00 00 00 00 00 E0 |...............?

00 00 00 00 00 00 00 00 00 00 00 00 61 F3       |............a?

[2023-09-07 04:09:46.979] 

[2023-09-07 04:09:46.979] MBS:addr: 1, regaddr = 3ac9, regnum = 56

[2023-09-07 04:09:46.979] Send Modbus data:



01 04 3A C9 00 38 2D 3E                         |..:..8->

[2023-09-07 04:09:46.102] MBS:addr: 1, regaddr = 3ac9, regnum = 56

[2023-09-07 04:09:46.102] Send Modbus data:



01 04 3A C9 00 38 2D 3E                         |..:..8->

[2023-09-07 04:09:46.226] ↑↑↑收到待解析设备的数据



01 04 C8 00 00 00 00 00 00 00 00 00 00 00 00 00 |..?.............

00 00 00 00 00 00 00 00 00 00 00 00 00 00 00 00 |................

00 00 00 00 00 00 00 00 00 00 00 00 00 00 00 00 |................

00 00 00 00 00 00 00 00 00 00 00 00 00 00 00 00 |................

00 00 00 00 00 00 00 00 00 00 00 00 00 00 00 00 |................

00 00 00 00 00 00 00 00 00 00 00 00 00 00 00 00 |................

00 00 00 00 00 00 00 00 00 00 00 00 00 00 00 00 |................

00 00 00 00 00 00 00 00 00 00 00 00 00 00 00 00 |................

00 00 00 00 00 00 00 00 00 00 00 00 00 00 00 00 |................

00 00 00 00 00 00 00 00 00 00 00 00 00 00 00 00 |................

00 00 00 00 00 00 00 00 00 00 00 00 00 00 00 00 |................

00 00 00 00 00 00 00 00 00 00 00 00 00 FE 0C 00 |................

00 00 00 00 9F B5                               |.....?

[2023-09-07 04:09:46.308] 

[2023-09-07 04:09:46.308] MBS:addr: 1, regaddr = 3b01, regnum = 100

[2023-09-07 04:09:46.309] Send Modbus data:



01 04 3B 01 00 64 AD 05                         |..;..d..

[2023-09-07 04:09:46.438] MBS:addr: 1, regaddr = 3b01, regnum = 100

[2023-09-07 04:09:46.438] Send Modbus data:



01 04 3B 01 00 64 AD 05                         |..;..d..

[2023-09-07 04:09:47.562] MBS:addr: 1, regaddr = 3b01, regnum = 100

[2023-09-07 04:09:47.562] Send Modbus data:



01 04 3B 01 00 64 AD 05                         |..;..d..

[2023-09-07 04:09:47.686] MBS:addr: 1, regaddr = 3b01, regnum = 100

[2023-09-07 04:09:47.686] Send Modbus data:



01 04 3B 01 00 64 AD 05                         |..;..d..

[2023-09-07 04:09:47.810] ↑↑↑收到待解析设备的数据



01 04 C8 00 00 00 00 00 00 00 00 00 00 00 00 00 |..?.............

00 00 00 00 00 00 00 00 00 00 00 00 00 00 00 00 |................

00 00 00 00 00 00 00 00 00 00 00 00 00 00 00 00 |................

00 00 00 00 00 00 00 00 00 00 00 00 00 00 00 00 |................

00 00 00 00 00 00 00 00 00 00 00 00 00 00 00 00 |................

00 00 00 00 00 60 00 00 00 00 00 00 00 00 00 00 |.....`..........

00 00 00 00 00 00 00 00 00 00 00 00 00 00 00 00 |................

00 00 00 00 00 00 00 00 00 00 00 00 00 00 00 00 |................

00 00 00 00 00 00 00 00 00 00 00 00 00 00 00 00 |................

00 00 00 00 00 00 00 00 00 00 00 00 00 00 00 00 |................

00 00 00 00 00 00 00 00 00 00 00 00 00 00 00 00 |................

00 00 00 00 00 00 00 00 00 00 00 00 00 00 00 00 |................

00 00 00 9F B5 01 04 70 00 00 00 00 00 00 00 00 |....?..p........

00 00 00 00 00 00 00 00 00 00 00 00 00 00 00 00 |................

00 00 00 00 00 00 00 00 00 00 00 00 00 00 00 00 |................

00 00 00 00 00 00 00 00 00 00 00 00 00 00 00 00 |................

00 00 00 00 00 00 00 00 00 00 00 00 00 00 00 00 |................

00 00 00 00 00 00 00 00 00 00 00 00 00 00 00 00 |................

00 00 00 00 00 00 00 00 00 00 00 00 00 00 00 00 |................

00 00 00 00 00 00 00 00 61 F3                   |........a?

[2023-09-07 04:09:47.892] 

[2023-09-07 04:09:47.893] MBS:addr: 1, regaddr = 3b65, regnum = 100

[2023-09-07 04:09:47.893] Send Modbus data:



01 04 3B 65 00 64 EC DA                         |..;e.d..

[2023-09-07 04:09:47.018] MBS:addr: 1, regaddr = 3b65, regnum = 100

[2023-09-07 04:09:47.018] Send Modbus data:



01 04 3B 65 00 64 EC DA                         |..;e.d..

[2023-09-07 04:09:47.142] MBS:addr: 1, regaddr = 3b65, regnum = 100

[2023-09-07 04:09:47.142] Send Modbus data:



01 04 3B 65 00 64 EC DA                         |..;e.d..

[2023-09-07 04:09:47.270] MBS:addr: 1, regaddr = 3b65, regnum = 100

[2023-09-07 04:09:47.270] Send Modbus data:



01 04 3B 65 00 64 EC DA                         |..;e.d..

[2023-09-07 04:09:47.394] MBS:addr: 1, regaddr = 3b65, regnum = 100

[2023-09-07 04:09:47.394] Send Modbus data:



01 04 3B 65 00 64 EC DA                         |..;e.d..

[2023-09-07 04:09:47.518] ↑↑↑收到待解析设备的数据



01 04 C8 00 00 00 00 00 00 00 00 00 00 00 00 00 |..?.............

00 00 00 00 00 00 00 00 00 00 00 00 00 00 FE 0C |................

00 00 00 00 00 00 00 00 00 00 00 00 00 00 00 00 |................

00 00 00 00 00 00 00 00 00 00 00 00 00 00 00 00 |................

00 00 00 00 00 00 00 00 00 00 00 00 00 00 00 00 |................

00 00 00 00 00 00 00 00 00 00 00 00 00 00 00 00 |................

00 00 00 00 00 00 00 00 00 00 00 00 00 00 00 00 |................

00 00 00 00 00 00 00 00 00 00 00 00 00 00 00 00 |................

00 00 00 00 00 00 00 00 00 00 00 00 00 00 00 00 |................

00 00 00 00 00 00 00 00 00 00 00 00 00 00 00 00 |................

00 00 00 00 00 00 00 00 00 00 00 00 00 00 00 00 |................

00 00 00 00 00 00 00 00 00 00 00 00 00 00 00 00 |................

00 00 00 00 9F B5 01 04 C8 00 00 00 00 00 00 00 |.....?..?.......

00 00 00 00 00 00 00 60 00 00 00 00 00 00 00 00 |.......`........

00 00 00 00 00 00 00 00 00 00 00 00 00 00 00 00 |................

00 00 00 00 00 00 00 00 00 00 00 00 00 00 00 00 |................

00 00 00 00 00 00 00 00 00 00 00 00 00 00 00 00 |................

00 00 00 00 00 00 00 00 00 00 00 00 00 00 00 00 |................

00 00 00 00 00 00 00 00 00 00 00 00 00 00 00 00 |................

00 00 00 00 00 00 00 00 00 00 00 00 00 00 00 00 |................

00 00 00 00 00 00 00 00 00 00 00 C0 00 00 00 00 |...........?....

00 00 00 00 00 00 00 00 00 00 00 00 00 00 00 00 |................

00 00 00 00 00 00 00 00 00 00 00 00 00 00 00 00 |................

00 00 00 00 00 00 00 00 00 00 00 00 00 00 00 00 |................

00 9F B5                                        |..?

[2023-09-07 04:09:48.679] 

[2023-09-07 04:09:48.680] MBS:addr: 1, regaddr = 3bc9, regnum = 56

[2023-09-07 04:09:48.680] Send Modbus data:



01 04 3B C9 00 38 2C C2                         |..;..8,.

[2023-09-07 04:09:48.802] MBS:addr: 1, regaddr = 3bc9, regnum = 56

[2023-09-07 04:09:48.802] Send Modbus data:



01 04 3B C9 00 38 2C C2                         |..;..8,.

[2023-09-07 04:09:48.926] ↑↑↑收到待解析设备的数据



01 04 C8 00 00 00 00 00 00 00 00 00 00 00 00 00 |..?.............

00 00 00 00 00 00 00 00 00 00 00 00 00 00 00 00 |................

00 00 00 00 00 00 00 00 00 00 00 00 00 00 00 00 |................

00 00 00 00 00 00 00 00 00 00 00 00 00 00 00 00 |................

00 00 00 00 00 00 00 00 00 00 00 C0 00 00 00 00 |...........?....

00 00 00 00 00 00 00 00 00 00 00 00 00 00 00 00 |................

00 00 00 00 00 00 00 00 00 00 00 00 00 00 00 00 |................

00 00 00 00 00 00 00 00 00 00 00 00 00 00 00 00 |................

00 00 00 00 00 00 00 00 00 00 00 00 00 00 00 00 |................

00 00 00 00 00 00 00 00 00 00 00 00 00 00 00 00 |................

00 00 00 00 00 00 00 00 00 00 00 00 00 00 00 00 |................

00 00 00 00 00 00 00 00 00 00 00 00 00 00 00 00 |................

00 00 00 00 9F B5                               |.....?

[2023-09-07 04:09:48.007] 

[2023-09-07 04:09:48.008] MBS:addr: 1, regaddr = 3c01, regnum = 100

[2023-09-07 04:09:48.008] Send Modbus data:



01 04 3C 01 00 64 AC 71                         |..<..d.q

[2023-09-07 04:09:48.130] ↑↑↑收到待解析设备的数据



Connect cloud.fourfaith.com:9103
unknown host cloud.fourfaith.com
01 04 C8 00 00 00 00 00 00 00 00 00 00 00 00 00 |..?.............

00 00 00 00 00 00 00 00 80 00 00 00 00 00 00 00 |................

00 00 00 00 00 00 00 00 00 00 00 00 00 00 00 00 |................

00 00 00 00 00 00 00 00 00 00 00 00 00 00 00 00 |................

00 00 00 00 00 00 00 00 00 00 00 00 00 00 00 00 |................

00 00 00 00 00 00 00 00 00 00 00 00 00 00 00 00 |................

00 00 00 00 00 00 00 00 00 00 00 00 00 00 00 00 |................

00 00 00 00 00 00 00 00 00 00 00 00 00 00 00 00 |................

00 00 00 00 00 00 00 00 00 00 00 00 00 00 00 00 |................

00 00 00 00 00 00 00 00 00 00 00 00 00 00 00 00 |................

00 00 00 00 00 00 00 00 00 00 00 00 00 00 00 00 |................

00 00 00 00 00 00 00 00 00 00 00 00 00 00 00 00 |................

00 00 00 00 9F B5                               |.....?

[2023-09-07 04:09:48.211] 

[2023-09-07 04:09:48.212] MBS:addr: 1, regaddr = 3c65, regnum = 100

[2023-09-07 04:09:48.212] Send Modbus data:



01 04 3C 65 00 64 ED AE                         |..<e.d..

[2023-09-07 04:09:48.334] MBS:addr: 1, regaddr = 3c65, regnum = 100

[2023-09-07 04:09:48.334] Send Modbus data:



01 04 3C 65 00 64 ED AE                         |..<e.d..

[2023-09-07 04:09:48.458] ↑↑↑收到待解析设备的数据



01 04 70 00 00 00 00 00 00 00 00 00 00 00 00 00 |..p.............

00 00 00 00 00 00 00 00 00 00 00 00 00 00 00 C0 |...............?

00 00 00 00 00 00 00 00 00 00 00 00 00 00 00 00 |................

00 00 00 00 00 00 00 00 00 00 00 00 00 00 00 00 |................

00 00 00 00 00 00 00 00 00 00 00 00 00 00 00 00 |................

00 00 00 00 00 00 00 00 00 00 00 00 00 00 00 00 |................

00 00 00 00 00 00 00 00 00 00 00 61 F3          |...........a?

[2023-09-07 04:09:49.539] 

[2023-09-07 04:09:49.539] MBS:addr: 1, regaddr = 3cc9, regnum = 56

[2023-09-07 04:09:49.539] Send Modbus data:



01 04 3C C9 00 38 2D B6                         |..<..8-.

[2023-09-07 04:09:49.662] MBS:addr: 1, regaddr = 3cc9, regnum = 56

[2023-09-07 04:09:49.662] Send Modbus data:



01 04 3C C9 00 38 2D B6                         |..<..8-.

[2023-09-07 04:09:49.786] ↑↑↑收到待解析设备的数据



01 04 C8 00 00 00 00 00 00 00 00 00 00 00 00 00 |..?.............

00 00 00 00 00 00 00 00 00 00 00 00 00 00 00 00 |................

00 00 00 00 00 00 00 00 00 00 00 00 00 00 00 00 |................

00 00 00 00 00 00 00 00 00 00 00 00 00 00 00 00 |................

00 00 00 00 00 00 00 00 00 00 00 00 00 00 00 00 |................

00 00 F0 00 00 00 00 00 00 00 00 00 00 00 00 00 |..?.............

00 00 00 00 00 00 00 00 00 00 00 00 00 00 00 00 |................

00 00 00 00 00 00 00 00 00 00 00 00 00 00 00 00 |................

00 00 00 00 00 00 00 00 00 00 00 00 00 00 00 00 |................

00 00 00 00 00 00 00 00 00 00 00 00 00 00 00 00 |................

00 00 00 00 00 00 00 00 00 00 00 00 00 00 00 00 |................

00 00 00 00 00 00 00 00 00 00 00 00 00 00 00 00 |................

00 00 FF                                        |...

[2023-09-07 04:09:49.867] 

[2023-09-07 04:09:49.868] MBS:addr: 1, regaddr = 3d01, regnum = 100

[2023-09-07 04:09:49.868] Send Modbus data:



01 04 3D 01 00 64 AD 8D                         |..=..d..

[2023-09-07 04:09:49.990] MBS:addr: 1, regaddr = 3d01, regnum = 100

[2023-09-07 04:09:49.990] Send Modbus data:



01 04 3D 01 00 64 AD 8D                         |..=..d..

[2023-09-07 04:09:49.114] ↑↑↑收到待解析设备的数据



01 04 70 00 00 00 00 00 00 00 00 00 00 00 00 00 |..p.............

00 00 00 00 00 00 00 00 00 00 00 00 00 00 00 00 |................

00 00 00 00 00 00 00 00 00 00 00 00 00 00 00 00 |................

00 00 00 00 00 00 00 00 00 00 00 00 00 00 00 00 |................

00 00 00 00 00 00 00 00 00 00 00 00 00 00 00 00 |................

00 00 00 00 00 00 00 00 00 00 00 00 00 00 00 00 |................

00 00 00 00 00 00 00 00 00 00 00 00 00 00 00 00 |................

00 00 00 61 F3                                  |...a?

[2023-09-07 04:09:49.195] 

[2023-09-07 04:09:49.195] MBS:addr: 1, regaddr = 3d65, regnum = 100

[2023-09-07 04:09:49.195] Send Modbus data:



01 04 3D 65 00 64 EC 52                         |..=e.d.R

[2023-09-07 04:09:49.318] MBS:addr: 1, regaddr = 3d65, regnum = 100

[2023-09-07 04:09:49.318] Send Modbus data:



01 04 3D 65 00 64 EC 52                         |..=e.d.R

[2023-09-07 04:09:49.442] ↑↑↑收到待解析设备的数据



01 04 70 00 00 00 00 00 00 00 00 00 00 00 00 00 |..p.............

00 00 00 00 00 00 00 00 00 00 00 00 00 00 00 00 |................

00 00 00 00 00 00 00 00 00 00 00 00 00 00 00 00 |................

00 00 00 00 00 00 00 00 00 00 00 00 00 00 00 00 |................

00 00 00 00 00 00 00 00 00 00 00 00 00 00 00 00 |................

00 00 00 00 00 00 00 00 00 00 00 00 00 00 00 00 |................

00 00 80 00 00 00 00 00 00 00 00 00 61 F3       |............a?

[2023-09-07 04:09:50.523] 

[2023-09-07 04:09:50.523] MBS:addr: 1, regaddr = 3dc9, regnum = 56

[2023-09-07 04:09:50.523] Send Modbus data:



01 04 3D C9 00 38 2C 4A                         |..=..8,J

[2023-09-07 04:09:50.646] MBS:addr: 1, regaddr = 3dc9, regnum = 56

[2023-09-07 04:09:50.646] Send Modbus data:



01 04 3D C9 00 38 2C 4A                         |..=..8,J

[2023-09-07 04:09:50.770] ↑↑↑收到待解析设备的数据



01 04 C8 00 00 00 00 00 00 00 00 00 00 00 00 00 |..?.............

00 00 00 00 00 00 00 00 00 00 00 00 00 00 00 00 |................

00 00 00 00 00 00 00 00 00 00 00 00 00 00 00 00 |................

00 00 00 00 00 00 00 00 00 00 00 00 00 00 00 00 |................

00 00 00 00 00 00 00 00 00 00 00 00 00 00 00 00 |................

00 00 00 00 00 00 00 00 00 00 00 00 00 00 00 00 |................

00 00 00 00 00 00 00 00 00 00 00 00 00 00 00 00 |................

00 00 00 00 00 00 00 00 00 00 00 00 00 00 00 00 |................

00 00 00 00 00 00 00 00 00 00 00 00 00 00 00 00 |................

00 00 00 00 00 00 00 00 00 00 00 00 00 00 00 00 |................

00 00 00 00 00 00 00 00 00 00 00 00 00 00 00 00 |................

00 00 00 00 00 00 00 00 00 00 00 00 00 00 00 00 |................

00 80 00 00 9F B5                               |.....?

[2023-09-07 04:09:50.851] 

[2023-09-07 04:09:50.852] MBS:addr: 1, regaddr = 3e01, regnum = 100

[2023-09-07 04:09:50.852] Send Modbus data:



01 04 3E 01 00 64 AD C9                         |..>..d..

[2023-09-07 04:09:50.974] MBS:addr: 1, regaddr = 3e01, regnum = 100

[2023-09-07 04:09:50.974] Send Modbus data:



01 04 3E 01 00 64 AD C9                         |..>..d..

[2023-09-07 04:09:50.098] MBS:addr: 1, regaddr = 3e01, regnum = 100

[2023-09-07 04:09:50.098] Send Modbus data:



01 04 3E 01 00 64 AD C9                         |..>..d..

[2023-09-07 04:09:50.222] MBS:addr: 1, regaddr = 3e01, regnum = 100

[2023-09-07 04:09:50.222] Send Modbus data:



01 04 3E 01 00 64 AD C9                         |..>..d..

[2023-09-07 04:09:50.346] ↑↑↑收到待解析设备的数据



01 04 C8 00 00 00 00 00 00 00 00 00 00 00 00 00 |..?.............

00 00 00 00 00 00 00 00 00 00 00 00 00 00 00 00 |................

00 00 00 00 00 00 00 00 00 00 00 00 00 00 00 00 |................

00 00 00 00 00 00 00 00 00 00 00 00 00 00 00 00 |................

00 00 00 00 00 00 00 00 00 00 00 00 00 00 00 00 |................

00 00 00 00 00 00 60 00 00 00 00 00 00 00 00 00 |......`.........

00 00 00 00 00 00 00 00 00 00 00 00 00 00 00 00 |................

00 00 00 00 00 00 00 00 00 00 00 00 00 00 00 00 |................

00 00 00 00 00 00 00 00 00 00 00 00 00 00 00 00 |................

00 00 00 00 00 00 00 00 00 00 00 00 00 00 00 00 |................

00 00 00 00 00 00 00 00 00 00 00 00 00 00 00 00 |................

00 00 00 00 00 00 00 00 00 00 00 00 00 00 00 00 |................

00 00 00 9F B5 01 04 70 00 00 00 00 00 00 00 00 |....?..p........

00 00 00 00 00 00 00 00 00 00 00 00 00 00 00 00 |................

00 00 00 00 00 00 00 00 00 00 00 00 00 00 00 00 |................

00 00 00 00 00 00 00 00 00 00 00 00 00 00 00 00 |................

00 00 00 00 00 00 00 00 00 00 00 00 00 00 00 00 |................

00 00 00 00 00 00 00 00 00 00 00 00 00 00 00 00 |................

00 00 00 00 00 00 00 00 00 00 00 00 00 00 00 00 |................

00 00 00 00 00 00 00 00 61 F3                   |........a?

[2023-09-07 04:09:50.428] 

[2023-09-07 04:09:50.429] MBS:addr: 1, regaddr = 3e65, regnum = 100

[2023-09-07 04:09:50.429] Send Modbus data:



01 04 3E 65 00 64 EC 16                         |..>e.d..

[2023-09-07 04:09:51.554] MBS:addr: 1, regaddr = 3e65, regnum = 100

[2023-09-07 04:09:51.554] Send Modbus data:



01 04 3E 65 00 64 EC 16                         |..>e.d..

[2023-09-07 04:09:51.678] ↑↑↑收到待解析设备的数据



01 04 C8 00 00 00 00 00 00 00 00 00 00 00 00 00 |..?.............

00 00 00 00 00 00 00 00 00 00 00 00 00 00 00 00 |................

00 00 00 00 00 00 00 00 00 00 00 00 00 00 00 00 |................

00 00 00 00 00 00 00 00 00 00 00 00 00 00 00 00 |................

00 00 00 00 00 00 00 00 00 00 00 00 00 F8 03 00 |................

00 00 00 00 00 00 00 00 00 00 00 00 00 00 00 00 |................

00 00 00 00 00 00 00 00 00 00 00 00 00 00 00 00 |................

00 00 00 00 00 00 00 00 00 00 00 00 00 00 00 00 |................

00 00 00 00 00 00 00 00 00 00 00 00 00 00 00 00 |................

00 00 00 00 00 00 00 00 00 00 00 00 00 00 00 00 |................

00 00 00 00 00 00 00 00 00 00 00 00 00 00 00 00 |................

00 00 00 00 00 00 00 00 00 00 00 00 00 00 00 00 |................

00 00 00 00 9F B5                               |.....?

[2023-09-07 04:09:51.759] 

[2023-09-07 04:09:51.760] MBS:addr: 1, regaddr = 3ec9, regnum = 56

[2023-09-07 04:09:51.760] Send Modbus data:



01 04 3E C9 00 38 2C 0E                         |..>..8,.

[2023-09-07 04:09:51.882] MBS:addr: 1, regaddr = 3ec9, regnum = 56

[2023-09-07 04:09:51.882] Send Modbus data:



01 04 3E C9 00 38 2C 0E                         |..>..8,.

[2023-09-07 04:09:51.006] ↑↑↑收到待解析设备的数据



01 04 C8 00 00 00 00 00 00 00 00 00 00 00 00 00 |..?.............

00 00 00 00 00 FE 18 00 00 00 00 00 00 00 00 00 |................

00 00 00 00 00 00 00 00 00 00 00 00 00 00 00 00 |................

00 00 00 00 00 00 00 00 00 00 00 00 00 00 00 00 |................

00 00 00 00 00 00 00 00 00 00 00 00 00 00 00 00 |................

00 00 00 00 00 00 00 00 00 00 00 00 00 00 00 00 |................

00 00 00 00 00 00 00 00 00 00 00 00 00 00 00 00 |................

00 00 00 00 00 00 00 00 00 00 00 00 00 00 00 00 |................

00 00 00 00 00 00 00 00 00 00 00 00 00 00 00 00 |................

00 00 00 00 00 00 00 00 00 00 00 00 00 00 00 00 |................

00 00 00 00 00 00 00 00 00 00 00 00 00 00 00 00 |................

00 00 00 00 00 00 00 00 00 00 00 00 00 00 00 00 |................

00 00 00 00 9F B5                               |.....?

[2023-09-07 04:09:51.087] 

[2023-09-07 04:09:51.088] MBS:addr: 1, regaddr = 3f01, regnum = 100

[2023-09-07 04:09:51.088] Send Modbus data:



01 04 3F 01 00 64 AC 35                         |..?..d.5

[2023-09-07 04:09:51.210] MBS:addr: 1, regaddr = 3f01, regnum = 100

[2023-09-07 04:09:51.210] Send Modbus data:



01 04 3F 01 00 64 AC 35                         |..?..d.5

[2023-09-07 04:09:51.334] ↑↑↑收到待解析设备的数据



01 04 C8 00 00 00 00 00 00 00 00 00 00 00 00 00 |..?.............

00 00 00 00 00 00 00 00 FC 0C 00 00 00 00 00 00 |................

00 00 00 00 00 00 00 00 00 00 00 00 00 00 00 00 |................

00 00 00 00 00 00 00 00 00 00 00 00 00 00 00 00 |................

00 00 00 00 00 00 00 00 00 00 00 00 00 00 00 00 |................

00 00 00 00 00 00 00 00 00 00 00 00 00 00 00 00 |................

00 00 00 00 00 00 00 00 00 00 00 00 00 00 00 00 |................

00 00 00 00 00 00 00 00 00 00 00 00 00 00 00 00 |................

00 00 00 00 00 00 00 00 00 00 00 00 00 00 00 00 |................

00 00 00 00 00 00 00 00 00 00 00 00 00 00 00 00 |................

00 00 00 00 00 00 00 00 00 00 00 00 00 00 00 00 |................

00 00 00 00 00 00 00 00 00 00 00 00 00 00 00 00 |................

00 00 00 00 9F B5                               |.....?

[2023-09-07 04:09:51.415] 

[2023-09-07 04:09:51.416] MBS:addr: 1, regaddr = 3f65, regnum = 100

[2023-09-07 04:09:51.416] Send Modbus data:



01 04 3F 65 00 64 ED EA                         |..?e.d..

[2023-09-07 04:09:52.538] ↑↑↑收到待解析设备的数据



01 04 70 00 00 00 00 00 00 00 00 00 00 00 00 00 |..p.............

00 00 00 00 00 00 00 00 00 00 00 00 00 00 00 FE |................

0C 00 00 00 00 00 00 00 00 00 00 00 00 00 00 00 |................

00 00 00 00 00 00 00 00 00 00 00 00 00 00 00 00 |................

00 00 00 00 00 00 00 00 00 00 00 00 00 00 00 00 |................

00 00 00 00 00 00 00 00 00 00 00 00 00 00 00 00 |................

00 00 00 00 00 00 00 00 00 00 00 00 61 F3       |............a?

[2023-09-07 04:09:52.619] 

[2023-09-07 04:09:52.619] MBS:addr: 1, regaddr = 3fc9, regnum = 56

[2023-09-07 04:09:52.619] Send Modbus data:



01 04 3F C9 00 38 2D F2                         |..?..8-.

[2023-09-07 04:09:52.742] MBS:addr: 1, regaddr = 3fc9, regnum = 56

[2023-09-07 04:09:52.742] Send Modbus data:



01 04 3F C9 00 38 2D F2                         |..?..8-.

[2023-09-07 04:09:52.866] MBS:addr: 1, regaddr = 3fc9, regnum = 56

[2023-09-07 04:09:52.866] Send Modbus data:



01 04 3F C9 00 38 2D F2                         |..?..8-.

[2023-09-07 04:09:52.990] ↑↑↑收到待解析设备的数据



01 04 C8 00 00 00 00 00 00 00 00 00 00 00 00 00 |..?.............

00 00 00 00 00 00 00 F0 03 00 00 00 00 00 00 00 |.......?........

00 00 00 00 00 00 00 00 00 00 00 00 00 00 00 00 |................

00 00 00 00 00 00 00 00 00 00 00 00 00 00 00 00 |................

00 00 00 00 00 00 00 00 00 00 00 00 00 00 00 00 |................

00 00 00 00 00 00 00 00 00 00 00 00 00 00 00 00 |................

00 00 00 00 00 00 00 00 00 00 00 00 00 00 00 00 |................

00 00 00 00 00 00 00 00 00 00 00 00 00 00 00 00 |................

00 00 00 00 00 00 00 00 00 00 00 00 00 00 00 00 |................

00 00 00 00 00 00 00 00 00 00 00 00 00 00 00 00 |................

00 00 00 00 00 00 00 00 00 00 00 00 00 00 00 00 |................

00 00 00 00 00 00 00 00 00 00 00 00 00 00 00 00 |................

00 00 F0                                        |..?

[2023-09-07 04:09:52.071] 

[2023-09-07 04:09:52.072] MBS:addr: 1, regaddr = 4000, regnum = 1

[2023-09-07 04:09:52.072] Send Modbus data:



01 04 40 00 00 01 24 0A                         |..@...$.

[2023-09-07 04:09:52.198] MBS:addr: 1, regaddr = 4000, regnum = 1

[2023-09-07 04:09:52.198] Send Modbus data:



01 04 40 00 00 01 24 0A                         |..@...$.

[2023-09-07 04:09:52.322] MBS:addr: 1, regaddr = 4000, regnum = 1

[2023-09-07 04:09:52.322] Send Modbus data:



01 04 40 00 00 01 24 0A                         |..@...$.

[2023-09-07 04:09:53.446] MBS:addr: 1, regaddr = 4000, regnum = 1

[2023-09-07 04:09:53.446] Send Modbus data:



01 04 40 00 00 01 24 0A                         |..@...$.

[2023-09-07 04:09:53.570] ↑↑↑收到待解析设备的数据



01 04 70 00 00 00 00 00 00 00 00 00 00 00 00 00 |..p.............

00 00 00 00 00 00 00 00 00 00 00 00 00 00 00 00 |................

00 00 00 00 00 00 00 00 00 00 00 00 00 00 00 00 |................

00 00 00 00 00 00 00 00 00 00 00 00 00 00 00 00 |................

00 00 00 00 00 00 00 00 00 00 00 00 00 00 00 00 |................

00 00 00 00 00 00 00 00 00 00 00 00 00 00 00 00 |................

00 00 00 00 00 00 00 00 00 00 00 00 00 00 00 00 |................

00 00 10 60 3F 01 04 70 00 00 00 00 00 00 00 00 |...`?..p........

00 00 00 00 00 00 00 00 00 00 00 00 00 00 00 00 |................

00 00 00 60 00 00 00 00 00 00 00 00 00 00 00 00 |...`............

00 00 00 00 00 00 00 00 00 00 00 00 00 00 00 00 |................

00 00 00 00 00 00 00 00 00 00 00 00 00 00 00 00 |................

00 00 00 00 00 00 00 00 00 00 00 00 00 00 00 00 |................

00 00 00 00 00 00 00 00 00 00 00 00 00 00 00 10 |................

60 3F 01 04 02 00 10 B8 FC                      |`?.....更

[2023-09-07 04:09:53.651] 

[2023-09-07 04:09:53.651] fieldsize = 4

[2023-09-07 04:09:53.651] type = 01

[2023-09-07 04:09:53.652] equipdescribe[28] = &&QN01,机器00,回路64,部件000

[2023-09-07 04:09:53.652] equipnumber = 0

[2023-09-07 04:09:53.652] time = 2023-09-07 04:09:53

[2023-09-07 04:09:53.652] 序号0存储完成

[2023-09-07 04:09:53.652] LD6910 解析成功

[2023-09-07 04:09:53.652] MBS:addr: 1, regaddr = 0001, regnum = 100

[2023-09-07 04:09:53.652] Send Modbus data:



[2023-09-07 04:09:53.658] FF通信协议组包

[2023-09-07 04:09:53.658] 第一通信中心发送数据

[2023-09-07 04:09:53.659] 第一通讯发送消防协议的数据包->->



01 04 00 01 00 64 A0 21                         |.....d.!

40 40 04 00 02 03 35 09 04 07 09 17 07 25 51 80 |@@....5......%Q.

12 FF 00 00 00 00 00 00 31 00 02 0A 01 00 01 33 |........1......3

04 01 01 00 01 1C 26 26 51 4E 30 31 2C BB FA C6 |......&&QN01,机?

F7 30 30 2C BB D8 C2 B7 36 34 2C B2 BF BC FE 30 |?00,回路64,部件0

30 30 01 00 01 00 35 09 04 07 09 17 53 23 23    |00....5.....S##

[2023-09-07 04:09:53.762] ->->收到平台的数据包



[2023-09-07 04:09:53.774] MBS:addr: 1, regaddr = 0001, regnum = 100

[2023-09-07 04:09:53.774] Send Modbus data:



40 40 04 00 02 03 36 09 04 07 09 17 00 00 00 00 |@@....6.........

00 00 07 25 51 80 12 FF 00 00 03 84 23 23       |...%Q.......##

[2023-09-07 04:09:53.842] 数据全部解析完成

[2023-09-07 04:09:53.843] 第一通信中心通讯完成

01 04 00 01 00 64 A0 21                         |.....d.!

[2023-09-07 04:09:53.898] MBS:addr: 1, regaddr = 0001, regnum = 100

[2023-09-07 04:09:53.898] Send Modbus data:



01 04 00 01 00 64 A0 21                         |.....d.!

[2023-09-07 04:09:53.022] ↑↑↑收到待解析设备的数据



01 04 02 00 10 B8 FC 01 04 02 00 10 B8 FC 01 04 |.....更.....更..

02 00 10 B8 FC                                  |...更

[2023-09-07 04:09:53.102] 

[2023-09-07 04:09:53.102] MBS:addr: 1, regaddr = 0065, regnum = 100

[2023-09-07 04:09:53.103] Send Modbus data:



01 04 00 65 00 64 E1 FE                         |...e.d..

Connect cloud.fourfaith.com:9103
unknown host cloud.fourfaith.com
[2023-09-07 04:09:53.226] MBS:addr: 1, regaddr = 0065, regnum = 100

[2023-09-07 04:09:53.226] Send Modbus data:



01 04 00 65 00 64 E1 FE                         |...e.d..

[2023-09-07 04:09:53.350] MBS:addr: 1, regaddr = 0065, regnum = 100

[2023-09-07 04:09:53.350] Send Modbus data:



01 04 00 65 00 64 E1 FE                         |...e.d..

[2023-09-07 04:09:54.474] ↑↑↑收到待解析设备的数据



01 04 C8 00 00 00 00 00 00 00 00 00 00 00 00 00 |..?.............

00 00 00 00 00 00 00 00 00 00 00 00 00 00 00 00 |................

00 00 00 00 00 00 00 00 00 00 00 00 00 00 00 00 |................

00 00 00 00 00 00 00 00 00 00 00 00 00 00 00 00 |................

00 00 00 00 00 00 00 00 00 00 00 00 00 00 00 00 |................

00 00 00 00 00 00 00 00 00 00 00 00 00 00 00 00 |................

00 00 00 00 00 00 00 00 00 00 00 00 FC 06 00 00 |................

00 00 00 00 00 00 00 00 00 00 00 00 00 00 00 00 |................

00 00 00 00 00 00 00 00 00 00 00 00 00 00 00 00 |................

00 00 00 00 00 00 00 00 00 00 00 00 00 00 00 00 |................

00 00 00 00 00 00 FF 18 00 00 00 00 00 00 00 00 |................

00 00 00 00 00 00 00 00 00 00 00 00 00 9F B5    |..............?

[2023-09-07 04:09:54.555] 

[2023-09-07 04:09:54.556] MBS:addr: 1, regaddr = 00c9, regnum = 56

[2023-09-07 04:09:54.556] Send Modbus data:



01 04 00 C9 00 38 21 E6                         |.....8!.

[2023-09-07 04:09:54.678] MBS:addr: 1, regaddr = 00c9, regnum = 56

[2023-09-07 04:09:54.678] Send Modbus data:



01 04 00 C9 00 38 21 E6                         |.....8!.

[2023-09-07 04:09:54.802] MBS:addr: 1, regaddr = 00c9, regnum = 56

[2023-09-07 04:09:54.802] Send Modbus data:



01 04 00 C9 00 38 21 E6                         |.....8!.

[2023-09-07 04:09:54.926] ↑↑↑收到待解析设备的数据



01 04 C8 00 00 00 00 00 00 00 00 00 00 00 00 00 |..?.............

00 00 00 00 00 00 00 00 00 00 00 00 00 00 00 00 |................

00 00 00 00 00 00 00 00 00 00 00 00 00 00 00 00 |................

00 00 00 00 00 00 00 00 00 00 00 00 00 00 00 00 |................

00 00 00 00 00 00 00 00 00 00 00 00 00 00 00 00 |................

00 00 00 00 00 00 00 00 00 00 00 00 00 00 00 00 |................

00 00 00 00 00 00 00 C0 00 00 00 00 00 00 00 00 |.......?........

00 00 00 00 00 00 00 00 00 00 00 00 00 00 00 00 |................

00 00 00 00 00 00 00 00 00 00 00 00 00 00 00 00 |................

00 00 00 00 00 00 00 00 00 00 00 00 00 00 00 C0 |...............?

00 00 00 00 00 00 00 00 00 00 00 00 00 00 00 00 |................

00 00 00 00 00 00 00 00 00 00 00 00 9F B5       |.............?

[2023-09-07 04:09:54.007] 

[2023-09-07 04:09:54.007] MBS:addr: 1, regaddr = 0101, regnum = 100

[2023-09-07 04:09:54.008] Send Modbus data:



01 04 01 01 00 64 A1 DD                         |.....d..

[2023-09-07 04:09:54.130] ↑↑↑收到待解析设备的数据



01 04 70 00 00 00 00 00 00 00 00 00 00 00 00 00 |..p.............

00 00 00 00 00 00 00 00 00 00 00 00 00 00 00 00 |................

00 00 00 00 00 00 00 00 00 00 00 00 00 00 00 00 |................

00 00 00 00 00 00 00 00 00 00 00 00 00 00 00 00 |................

00 00 00 00 00 00 00 00 00 00 00 00 00 00 00 00 |................

00 00 00 00 00 00 00 00 00 00 00 00 00 00 00 00 |................

00 00 00 00 00 00 00 00 00 00 00 00 00 00 00 00 |................

00 00 00 61 F3                                  |...a?

[2023-09-07 04:09:54.211] 

[2023-09-07 04:09:54.211] MBS:addr: 1, regaddr = 0165, regnum = 100

[2023-09-07 04:09:54.211] Send Modbus data:



01 04 01 65 00 64 E0 02                         |...e.d..

[2023-09-07 04:09:54.334] MBS:addr: 1, regaddr = 0165, regnum = 100

[2023-09-07 04:09:54.334] Send Modbus data:



01 04 01 65 00 64 E0 02                         |...e.d..

[2023-09-07 04:09:55.458] ↑↑↑收到待解析设备的数据



01 04 70 00 00 00 00 00 00 00 00 00 00 00 00 00 |..p.............

00 00 00 00 00 00 00 00 00 00 00 00 00 00 00 00 |................

00 00 00 00 00 00 FE 0C 00 00 00 00 00 00 00 00 |................

00 00 00 00 00 00 00 00 00 00 00 00 00 00 00 00 |................

00 00 00 00 00 00 00 00 00 00 00 00 00 00 00 00 |................

00 00 00 00 00 00 00 00 00 00 00 00 00 00 00 00 |................

00 00 00 00 00 00 00 00 00 00 00 00 61 F3       |............a?

[2023-09-07 04:09:55.539] 

[2023-09-07 04:09:55.539] MBS:addr: 1, regaddr = 01c9, regnum = 56

[2023-09-07 04:09:55.539] Send Modbus data:



01 04 01 C9 00 38 20 1A                         |.....8 .

[2023-09-07 04:09:55.662] MBS:addr: 1, regaddr = 01c9, regnum = 56

[2023-09-07 04:09:55.662] Send Modbus data:



01 04 01 C9 00 38 20 1A                         |.....8 .

[2023-09-07 04:09:55.786] ↑↑↑收到待解析设备的数据



01 04 C8 00 00 00 00 00 00 00 00 00 00 00 00 00 |..?.............

00 00 00 00 00 00 00 00 00 00 00 00 00 00 00 00 |................

00 00 00 00 00 00 00 00 00 00 00 00 00 00 00 00 |................

00 00 00 00 00 00 00 00 00 00 00 00 00 00 00 00 |................

00 00 00 00 00 00 00 00 00 00 00 00 00 00 00 00 |................

00 00 00 00 00 00 00 00 00 00 00 F8 06 00 00 00 |................

00 00 00 00 00 00 00 00 00 00 00 00 00 00 00 00 |................

00 00 00 00 00 00 00 00 00 00 00 00 00 00 00 00 |................

00 00 00 00 00 00 00 00 00 00 00 00 00 00 00 00 |................

00 00 00 00 00 00 00 00 00 00 00 00 00 00 00 00 |................

00 00 00 00 00 00 00 00 00 00 00 00 00 00 00 00 |................

00 00 00 00 00 00 00 00 00 00 00 00 00 00 00 00 |................

00 00 00 00 9F B5                               |.....?

[2023-09-07 04:09:55.867] 

[2023-09-07 04:09:55.868] MBS:addr: 1, regaddr = 0201, regnum = 100

[2023-09-07 04:09:55.868] Send Modbus data:



01 04 02 01 00 64 A1 99                         |.....d..

[2023-09-07 04:09:55.990] MBS:addr: 1, regaddr = 0201, regnum = 100

[2023-09-07 04:09:55.990] Send Modbus data:



01 04 02 01 00 64 A1 99                         |.....d..

[2023-09-07 04:09:55.114] ↑↑↑收到待解析设备的数据



01 04 C8 00 00 00 00 00 00 00 00 00 00 00 00 00 |..?.............

00 00 00 00 00 00 00 00 00 00 00 00 00 00 00 00 |................

00 00 00 00 00 00 00 00 00 00 00 00 00 00 00 00 |................

00 00 00 00 00 00 00 00 00 00 00 00 00 00 00 00 |................

00 00 00 00 00 00 00 00 00 00 00 00 00 00 00 00 |................

00 00 00 00 00 00 00 00 00 00 00 00 00 00 00 00 |................

00 00 00 00 00 00 00 00 00 00 00 00 00 00 00 00 |................

00 00 00 00 00 00 00 00 00 00 00 00 00 00 00 00 |................

00 00 00 00 00 00 00 00 00 00 00 00 00 00 00 60 |...............`

00 00 00 00 00 00 00 00 00 00 00 00 00 00 00 00 |................

00 00 00 00 00 00 00 00 00 00 00 00 00 00 00 00 |................

00 00 00 00 00 00 00 00 00 00 00 00 00 00 00 00 |................

00 00 00 9F B5                                  |....?

[2023-09-07 04:09:55.195] 

[2023-09-07 04:09:55.196] MBS:addr: 1, regaddr = 0265, regnum = 100

[2023-09-07 04:09:55.196] Send Modbus data:



01 04 02 65 00 64 E0 46                         |...e.d.F

[2023-09-07 04:09:55.318] MBS:addr: 1, regaddr = 0265, regnum = 100

[2023-09-07 04:09:55.318] Send Modbus data:



01 04 02 65 00 64 E0 46                         |...e.d.F

[2023-09-07 04:09:56.442] ↑↑↑收到待解析设备的数据



01 04 70 00 00 00 00 00 00 00 00 00 00 00 00 00 |..p.............

00 00 00 00 00 00 00 00 00 00 00 00 00 E0 00 00 |.............?..

00 00 00 00 00 00 00 00 00 00 00 00 00 00 00 00 |................

00 00 00 00 00 00 00 00 00 00 00 00 00 00 00 00 |................

00 00 00 00 00 00 00 00 00 00 00 00 00 00 00 00 |................

00 00 00 00 00 00 00 00 00 00 00 00 00 00 00 00 |................

00 00 00 00 00 00 00 00 00 00 00 00 61 F3       |............a?

[2023-09-07 04:09:56.523] 

[2023-09-07 04:09:56.523] MBS:addr: 1, regaddr = 02c9, regnum = 56

[2023-09-07 04:09:56.523] Send Modbus data:



01 04 02 C9 00 38 20 5E                         |.....8 ^

[2023-09-07 04:09:56.646] MBS:addr: 1, regaddr = 02c9, regnum = 56

[2023-09-07 04:09:56.646] Send Modbus data:



01 04 02 C9 00 38 20 5E                         |.....8 ^

[2023-09-07 04:09:56.770] ↑↑↑收到待解析设备的数据



01 04 C8 00 00 00 00 00 00 00 00 00 00 00 00 00 |..?.............

00 00 00 00 00 00 00 00 00 00 00 00 00 00 00 00 |................

00 00 00 00 00 00 00 00 00 00 00 00 00 00 00 00 |................

00 00 00 00 00 00 00 00 00 00 00 00 00 00 00 00 |................

00 00 00 00 00 00 00 00 00 00 00 00 00 00 00 00 |................

00 00 00 C0 00 00 00 00 00 00 00 00 00 00 00 00 |...?............

00 00 00 00 00 00 00 00 00 00 00 00 00 00 00 00 |................

00 00 00 00 00 00 00 00 00 00 00 00 00 00 00 00 |................

00 00 00 00 00 00 00 00 00 00 00 00 00 00 00 00 |................

00 00 00 00 00 00 00 00 00 00 00 00 00 00 00 00 |................

00 00 00 00 00 00 00 00 00 00 00 00 00 00 00 00 |................

00 00 00 00 00 00 00 00 00 00 00 00 00 00 00 00 |................

00 00 00 F0                                     |...?

[2023-09-07 04:09:56.851] 

[2023-09-07 04:09:56.852] MBS:addr: 1, regaddr = 0301, regnum = 100

[2023-09-07 04:09:56.852] Send Modbus data:



01 04 03 01 00 64 A0 65                         |.....d.e

[2023-09-07 04:09:56.974] MBS:addr: 1, regaddr = 0301, regnum = 100

[2023-09-07 04:09:56.974] Send Modbus data:



01 04 03 01 00 64 A0 65                         |.....d.e

[2023-09-07 04:09:56.098] MBS:addr: 1, regaddr = 0301, regnum = 100

[2023-09-07 04:09:56.098] Send Modbus data:



01 04 03 01 00 64 A0 65                         |.....d.e

[2023-09-07 04:09:56.222] ↑↑↑收到待解析设备的数据



01 04 70 00 00 00 00 00 00 00 00 00 00 00 00 00 |..p.............

00 00 00 00 00 00 00 00 00 00 00 00 00 00 00 00 |................

00 00 00 00 00 00 00 00 00 00 00 00 00 00 00 00 |................

00 00 00 00 00 00 00 00 00 00 00 00 00 00 00 00 |................

00 00 00 00 00 00 00 00 00 00 00 00 00 00 00 00 |................

00 00 00 00 00 00 00 00 00 00 00 00 00 00 00 00 |................

00 00 00 00 00 C0 00 00 00 00 00 00 61 F3       |.....?......a?

[2023-09-07 04:09:56.303] 

[2023-09-07 04:09:56.303] MBS:addr: 1, regaddr = 0365, regnum = 100

[2023-09-07 04:09:56.303] Send Modbus data:



01 04 03 65 00 64 E1 BA                         |...e.d..

[2023-09-07 04:09:56.426] MBS:addr: 1, regaddr = 0365, regnum = 100

[2023-09-07 04:09:56.426] Send Modbus data:



01 04 03 65 00 64 E1 BA                         |...e.d..

[2023-09-07 04:09:57.550] ↑↑↑收到待解析设备的数据



01 04 C8 00 00 00 00 00 00 00 00 00 00 00 00 00 |..?.............

00 00 00 00 00 00 00 00 00 00 00 00 00 00 00 00 |................

00 00 00 00 00 00 00 00 00 00 00 00 00 00 00 00 |................

00 00 00 00 00 00 00 00 00 00 00 00 00 00 00 00 |................

00 00 00 00 00 00 00 00 00 00 00 00 00 00 00 00 |................

00 00 00 00 00 00 00 00 00 00 00 00 00 00 00 00 |................

00 00 00 00 00 00 00 00 00 00 00 00 00 00 00 00 |................

00 00 00 00 00 00 00 00 00 00 00 00 00 00 00 00 |................

00 00 00 00 F0 03 00 00 00 00 00 00 00 00 00 00 |....?...........

00 00 00 00 00 00 00 00 00 00 00 00 00 00 00 00 |................

00 00 00 00 00 00 00 00 00 00 00 00 00 00 00 00 |................

00 00 00 00 00 00 00 00 00 00 00 00 00 00 00 00 |................

00 00 00 00 9F B5                               |.....?

[2023-09-07 04:09:57.631] 

[2023-09-07 04:09:57.632] MBS:addr: 1, regaddr = 03c9, regnum = 56

[2023-09-07 04:09:57.632] Send Modbus data:



01 04 03 C9 00 38 21 A2                         |.....8!.

[2023-09-07 04:09:57.754] MBS:addr: 1, regaddr = 03c9, regnum = 56

[2023-09-07 04:09:57.754] Send Modbus data:



01 04 03 C9 00 38 21 A2                         |.....8!.

[2023-09-07 04:09:57.878] MBS:addr: 1, regaddr = 03c9, regnum = 56

[2023-09-07 04:09:57.878] Send Modbus data:



01 04 03 C9 00 38 21 A2                         |.....8!.

[2023-09-07 04:09:57.002] ↑↑↑收到待解析设备的数据



01 04 C8 00 00 00 00 00 00 00 00 00 00 00 00 00 |..?.............

00 00 00 00 00 00 00 00 FF 18 00 00 00 00 00 00 |................

00 00 00 00 00 00 00 00 00 00 00 00 00 00 00 00 |................

00 00 00 00 00 00 00 00 00 00 00 00 00 00 00 00 |................

00 00 00 00 00 00 00 00 00 00 00 00 00 00 00 00 |................

00 00 00 00 00 00 00 00 00 00 00 00 00 00 00 00 |................

00 00 00 00 00 00 00 00 00 00 00 00 00 00 00 00 |................

00 00 00 00 00 00 00 00 00 00 00 00 00 00 00 00 |................

00 00 00 00 00 00 00 00 00 00 00 00 00 00 00 00 |................

00 00 00 00 00 00 00 00 00 00 00 00 00 00 00 00 |................

00 00 00 00 00 00 00 00 00 00 00 00 00 00 00 00 |................

00 00 00 00 00 00 00 00 00 00 00 00 00 00 FB    |...............

[2023-09-07 04:09:57.083] 

[2023-09-07 04:09:57.083] MBS:addr: 1, regaddr = 0401, regnum = 100

[2023-09-07 04:09:57.084] Send Modbus data:



01 04 04 01 00 64 A1 11                         |.....d..

[2023-09-07 04:09:57.206] MBS:addr: 1, regaddr = 0401, regnum = 100

[2023-09-07 04:09:57.206] Send Modbus data:



01 04 04 01 00 64 A1 11                         |.....d..

[2023-09-07 04:09:57.330] ↑↑↑收到待解析设备的数据



01 04 70 00 00 00 00 00 00 00 00 00 00 00 00 00 |..p.............

00 00 00 00 00 00 00 00 00 00 00 00 00 00 00 00 |................

00 00 00 00 00 00 00 00 00 00 00 00 00 00 00 00 |................

00 00 00 00 00 00 00 00 00 00 00 00 00 00 00 00 |................

00 00 00 00 00 00 00 00 00 00 00 00 00 00 00 00 |................

00 00 00 00 00 00 00 00 00 00 00 00 00 00 00 00 |................

00 00 00 00 00 00 00 00 00 00 00 00 00 00 00 00 |................

00 00 00 61 F3                                  |...a?

[2023-09-07 04:09:58.411] 

[2023-09-07 04:09:58.411] MBS:addr: 1, regaddr = 0465, regnum = 100

[2023-09-07 04:09:58.411] Send Modbus data:



01 04 04 65 00 64 E0 CE                         |...e.d..

[2023-09-07 04:09:58.534] ↑↑↑收到待解析设备的数据



01 04 70 00 00 00 00 00 00 00 00 00 00 00 00 00 |..p.............

00 00 00 00 00 00 00 00 00 00 00 00 00 00 00 00 |................

00 00 F0 00 00 00 00 00 00 00 00 00 00 00 00 00 |..?.............

00 00 00 00 00 00 00 00 00 00 00 00 00 00 00 00 |................

00 00 00 00 00 00 00 00 00 00 00 00 00 00 00 00 |................

00 00 00 00 00 00 00 00 00 00 00 00 00 00 00 00 |................

00 00 00 00 00 00 00 00 00 00 00 00 61 F3       |............a?

[2023-09-07 04:09:58.615] 

[2023-09-07 04:09:58.615] MBS:addr: 1, regaddr = 04c9, regnum = 56

[2023-09-07 04:09:58.615] Send Modbus data:



01 04 04 C9 00 38 20 D6                         |.....8 .

[2023-09-07 04:09:58.738] MBS:addr: 1, regaddr = 04c9, regnum = 56

[2023-09-07 04:09:58.738] Send Modbus data:



01 04 04 C9 00 38 20 D6                         |.....8 .

[2023-09-07 04:09:58.862] MBS:addr: 1, regaddr = 04c9, regnum = 56

[2023-09-07 04:09:58.862] Send Modbus data:



01 04 04 C9 00 38 20 D6                         |.....8 .

[2023-09-07 04:09:58.986] ↑↑↑收到待解析设备的数据



01 04 C8 00 00 00 00 00 00 00 00 00 00 00 00 00 |..?.............

00 00 00 00 00 00 00 00 00 00 00 00 00 00 00 00 |................

00 00 00 00 00 00 00 00 00 00 00 00 00 00 00 00 |................

00 00 00 00 00 00 00 00 00 00 00 00 00 00 00 00 |................

00 00 00 00 00 00 00 00 00 00 00 00 00 00 00 00 |................

00 00 00 00 00 00 00 00 00 00 00 00 00 00 00 00 |................

00 00 00 00 00 00 00 00 00 00 00 00 00 00 00 00 |................

00 00 00 00 00 00 00 00 00 00 00 00 00 00 00 00 |................

00 00 00 00 00 00 00 00 F0 00 00 00 00 00 00 00 |........?.......

00 00 00 00 00 00 00 00 00 00 00 00 00 00 00 00 |................

00 00 00 00 00 00 00 00 00 00 00 00 00 00 00 00 |................

00 00 00 00 00 00 00 00 00 00 00 00 00 00 00 00 |................

00 00 00 00 9F B5                               |.....?

[2023-09-07 04:09:58.067] 

[2023-09-07 04:09:58.068] MBS:addr: 1, regaddr = 0501, regnum = 100

[2023-09-07 04:09:58.068] Send Modbus data:



01 04 05 01 00 64 A0 ED                         |.....d..

[2023-09-07 04:09:58.190] MBS:addr: 1, regaddr = 0501, regnum = 100

[2023-09-07 04:09:58.190] Send Modbus data:



Connect cloud.fourfaith.com:9103
unknown host cloud.fourfaith.com
remote_mgr_v2: connect to choose login svr retry max, break!
remote_bus_mgr_v2: choose server fail!
01 04 05 01 00 64 A0 ED                         |.....d..

[2023-09-07 04:09:58.314] ↑↑↑收到待解析设备的数据



01 04 70 00 00 00 00 00 00 00 00 00 00 00 00 00 |..p.............

00 00 00 00 00 00 00 00 00 00 00 00 00 00 00 00 |................

00 00 00 00 00 00 00 00 00 00 00 00 00 00 00 00 |................

00 00 00 00 00 00 00 00 00 00 00 00 00 00 00 00 |................

00 00 00 00 00 00 00 00 00 00 00 00 00 00 00 00 |................

00 00 00 00 00 00 00 00 80 00 00 00 00 00 00 00 |................

00 00 00 00 00 00 00 00 00 00 00 00 61 F3       |............a?

[2023-09-07 04:09:58.395] 

[2023-09-07 04:09:58.395] MBS:addr: 1, regaddr = 0565, regnum = 100

[2023-09-07 04:09:58.395] Send Modbus data:



01 04 05 65 00 64 E1 32                         |...e.d.2

[2023-09-07 04:09:59.518] ↑↑↑收到待解析设备的数据



01 04 70 00 00 00 00 00 00 00 00 00 00 00 00 00 |..p.............

00 00 00 00 00 00 00 00 00 00 00 00 00 00 00 00 |................

00 00 00 00 00 00 00 00 00 00 00 00 00 00 00 00 |................

00 00 00 00 00 00 00 00 00 00 00 00 00 00 00 00 |................

00 00 00 00 00 00 00 00 00 00 00 00 00 00 00 00 |................

00 00 00 00 00 00 00 00 00 00 00 00 00 00 00 00 |................

00 00 00 00 F0 00 00 00 00 00 00 00 61 F3       |....?.......a?

[2023-09-07 04:09:59.599] 

[2023-09-07 04:09:59.599] MBS:addr: 1, regaddr = 05c9, regnum = 56

[2023-09-07 04:09:59.599] Send Modbus data:



01 04 05 C9 00 38 21 2A                         |.....8!*

[2023-09-07 04:09:59.722] MBS:addr: 1, regaddr = 05c9, regnum = 56

[2023-09-07 04:09:59.722] Send Modbus data:



01 04 05 C9 00 38 21 2A                         |.....8!*

[2023-09-07 04:09:59.846] MBS:addr: 1, regaddr = 05c9, regnum = 56

[2023-09-07 04:09:59.846] Send Modbus data:



01 04 05 C9 00 38 21 2A                         |.....8!*

[2023-09-07 04:09:59.974] MBS:addr: 1, regaddr = 05c9, regnum = 56

[2023-09-07 04:09:59.974] Send Modbus data:



01 04 05 C9 00 38 21 2A                         |.....8!*

[2023-09-07 04:09:59.102] MBS:addr: 1, regaddr = 05c9, regnum = 56

[2023-09-07 04:09:59.102] Send Modbus data:



01 04 05 C9 00 38 21 2A                         |.....8!*

[2023-09-07 04:09:59.226] ↑↑↑收到待解析设备的数据



01 04 C8 00 00 00 00 00 00 00 00 00 00 00 00 00 |..?.............

00 00 00 00 00 00 00 00 00 00 00 00 00 00 00 00 |................

00 00 00 00 00 00 00 00 00 00 00 00 00 00 00 00 |................

00 00 00 00 00 00 00 00 00 00 00 00 00 00 00 00 |................

00 00 00 00 00 00 00 00 00 00 00 00 00 00 00 00 |................

00 00 00 00 00 00 00 00 00 00 00 00 00 00 00 00 |................

00 00 00 00 00 00 00 00 00 00 00 00 00 00 00 00 |................

00 00 00 00 00 00 00 00 00 00 00 00 00 00 00 00 |................

00 00 00 00 F8 03 00 00 00 00 00 00 00 00 00 00 |................

00 00 00 00 00 00 00 00 00 00 00 00 00 00 00 00 |................

00 00 00 00 00 00 00 00 00 00 00 00 00 00 00 00 |................

00 00 00 00 00 00 00 00 00 00 00 00 00 00 00 00 |................

00 00 00 00 9F B5 01 04 70 00 00 00 00 00 00 00 |.....?..p.......

00 00 00 00 00 00 00 00 00 00 00 00 00 00 00 00 |................

00 00 00 00 00 00 00 00 00 00 00 00 00 00 00 00 |................

00 00 00 00 00 00 00 00 00 00 00 00 00 00 00 00 |................

00 00 00 00 00 00 00 00 00 00 00 00 00 00 00 00 |................

00 00 00 00 00 00 00 00 00 00 00 00 00 00 00 30 |...............0

00 00 00 00 00 00 00 00 00 00 00 00 00 00 00 00 |................

00 61 F3                                        |.a?

[2023-09-07 04:09:59.308] 

[2023-09-07 04:09:59.308] MBS:addr: 1, regaddr = 0601, regnum = 100

[2023-09-07 04:09:59.308] Send Modbus data:



01 04 06 01 00 64 A0 A9                         |.....d..

[2023-09-07 04:09:59.430] MBS:addr: 1, regaddr = 0601, regnum = 100

[2023-09-07 04:09:59.430] Send Modbus data:



01 04 06 01 00 64 A0 A9                         |.....d..

[2023-09-07 04:10:00.558] MBS:addr: 1, regaddr = 0601, regnum = 100

[2023-09-07 04:10:00.558] Send Modbus data:



01 04 06 01 00 64 A0 A9                         |.....d..

[2023-09-07 04:10:00.686] MBS:addr: 1, regaddr = 0601, regnum = 100

[2023-09-07 04:10:00.686] Send Modbus data:



01 04 06 01 00 64 A0 A9                         |.....d..

[2023-09-07 04:10:00.814] ↑↑↑收到待解析设备的数据



01 04 70 00 00 00 00 00 00 00 00 00 00 00 00 00 |..p.............

00 00 00 00 00 00 00 00 00 00 00 00 00 00 00 00 |................

00 00 00 00 00 00 00 00 00 00 00 00 00 00 00 00 |................

00 00 00 00 00 00 00 00 00 00 00 00 00 00 00 00 |................

00 00 00 00 00 00 00 00 00 00 00 00 00 00 00 00 |................

00 00 00 00 00 00 00 00 00 00 00 00 F8 03 00 00 |................

00 00 00 00 00 00 00 00 00 00 00 00 61 F3 01 04 |............a?..

70 00 00 00 00 00 00 00 00 00 00 00 00 00 00 00 |p...............

00 00 00 00 00 00 00 00 00 00 00 00 00 00 00 00 |................

00 00 00 00 00 00 00 00 00 00 00 00 00 00 00 00 |................

00 00 00 00 00 00 00 00 00 00 00 00 00 00 00 00 |................

00 00 00 00 00 00 00 00 00 00 00 00 00 00 00 00 |................

00 00 00 00 00 00 00 60 00 00 00 00 00 00 00 00 |.......`........

00 00 00 00 00 00 00 00 00 61 F3                |.........a?

[2023-09-07 04:10:00.895] 

[2023-09-07 04:10:00.896] MBS:addr: 1, regaddr = 0665, regnum = 100

[2023-09-07 04:10:00.896] Send Modbus data:



01 04 06 65 00 64 E1 76                         |...e.d.v

[2023-09-07 04:10:00.018] MBS:addr: 1, regaddr = 0665, regnum = 100

[2023-09-07 04:10:00.018] Send Modbus data:



01 04 06 65 00 64 E1 76                         |...e.d.v

[2023-09-07 04:10:00.142] MBS:addr: 1, regaddr = 0665, regnum = 100

[2023-09-07 04:10:00.142] Send Modbus data:



01 04 06 65 00 64 E1 76                         |...e.d.v

[2023-09-07 04:10:00.266] ↑↑↑收到待解析设备的数据



01 04 C8 00 00 00 00 00 00 00 00 00 00 00 00 00 |..?.............

00 00 00 00 00 00 00 00 00 00 00 00 00 00 00 00 |................

00 00 00 00 00 00 00 00 00 00 00 00 00 00 00 00 |................

00 00 00 00 00 00 00 00 00 00 00 00 00 00 00 00 |................

00 00 00 00 00 00 00 00 00 00 00 00 00 00 00 00 |................

00 00 00 00 00 00 00 00 00 00 00 00 00 00 00 00 |................

00 00 00 00 00 00 00 00 00 00 00 00 00 00 00 00 |................

00 00 00 00 00 00 00 00 00 00 00 00 00 00 00 00 |................

00 00 00 00 00 00 00 00 00 00 00 00 00 00 00 00 |................

00 00 00 00 00 00 00 00 00 00 00 00 00 00 00 00 |................

00 00 00 00 00 00 00 00 00 00 00 00 00 00 00 00 |................

00 00 00 00 00 00 00 00 00 00 00 00 00 00 00 00 |................

00 00 00 00 00 00 00 00 00 00 00 9F B5          |............?

[2023-09-07 04:10:00.347] 

[2023-09-07 04:10:00.347] LD6910 解析成功

[2023-09-07 04:10:00.348] MBS:addr: 1, regaddr = 06c9, regnum = 56

[2023-09-07 04:10:00.348] Send Modbus data:



01 04 06 C9 00 38 21 6E                         |.....8!n

[2023-09-07 04:10:01.470] MBS:addr: 1, regaddr = 06c9, regnum = 56

[2023-09-07 04:10:01.470] Send Modbus data:



01 04 06 C9 00 38 21 6E                         |.....8!n

[2023-09-07 04:10:01.594] ↑↑↑收到待解析设备的数据



01 04 C8 00 00 00 00 00 00 00 00 00 00 00 00 00 |..?.............

00 00 00 00 00 00 00 00 00 80 80 00 00 00 00 00 |................

00 00 00 00 00 00 00 00 00 00 00 00 00 00 00 00 |................

00 00 00 00 00 00 00 00 00 00 00 00 00 00 00 00 |................

00 00 00 00 00 00 00 00 00 00 00 00 00 00 00 00 |................

00 00 00 00 00 00 00 00 00 00 00 00 00 00 00 00 |................

00 00 00 00 00 00 00 00 00 00 00 00 00 00 00 00 |................

00 00 00 00 00 00 00 00 00 00 00 00 00 00 00 00 |................

00 00 00 00 00 00 00 00 00 00 00 00 00 00 00 00 |................

00 00 00 00 00 00 00 00 00 00 00 00 00 00 00 00 |................

00 00 00 00 00 00 00 00 00 00 00 00 00 00 00 00 |................

00 00 00 00 00 00 00 00 00 00 00 00 00 00 00 00 |................

00 00 00 00 9F B5                               |.....?

[2023-09-07 04:10:01.675] 

[2023-09-07 04:10:01.676] MBS:addr: 1, regaddr = 0701, regnum = 100

[2023-09-07 04:10:01.676] Send Modbus data:



01 04 07 01 00 64 A1 55                         |.....d.U

[2023-09-07 04:10:01.798] MBS:addr: 1, regaddr = 0701, regnum = 100

[2023-09-07 04:10:01.798] Send Modbus data:



01 04 07 01 00 64 A1 55                         |.....d.U

[2023-09-07 04:10:01.922] MBS:addr: 1, regaddr = 0701, regnum = 100

[2023-09-07 04:10:01.922] Send Modbus data:



01 04 07 01 00 64 A1 55                         |.....d.U

[2023-09-07 04:10:01.046] MBS:addr: 1, regaddr = 0701, regnum = 100

[2023-09-07 04:10:01.046] Send Modbus data:



01 04 07 01 00 64 A1 55                         |.....d.U

[2023-09-07 04:10:01.170] MBS:addr: 1, regaddr = 0701, regnum = 100

[2023-09-07 04:10:01.170] Send Modbus data:



01 04 07 01 00 64 A1 55                         |.....d.U

[2023-09-07 04:10:01.294] MBS:addr: 1, regaddr = 0701, regnum = 100

[2023-09-07 04:10:01.294] Send Modbus data:



01 04 07 01 00 64 A1 55                         |.....d.U

[2023-09-07 04:10:01.418] MBS:addr: 1, regaddr = 0701, regnum = 100

[2023-09-07 04:10:01.418] Send Modbus data:



01 04 07 01 00 64 A1 55                         |.....d.U

[2023-09-07 04:10:02.542] ↑↑↑收到待解析设备的数据



01 04 C8 00 00 00 00 00 00 00 00 00 00 00 00 00 |..?.............

00 00 00 00 00 00 00 00 00 00 FE 0C 00 00 00 00 |................

00 00 00 00 00 00 00 00 00 00 00 00 00 00 00 00 |................

00 00 00 00 00 00 00 00 00 00 00 00 00 00 00 00 |................

00 00 00 00 00 00 00 00 00 00 00 00 00 00 00 00 |................

00 00 00 00 00 00 00 00 00 00 00 00 00 00 00 00 |................

00 00 00 00 00 00 00 00 00 00 00 00 00 00 00 00 |................

00 00 00 00 00 00 00 00 00 00 00 00 00 00 00 00 |................

00 00 00 00 00 00 00 00 00 00 00 00 00 00 00 00 |................

00 00 00 00 00 00 00 00 00 00 00 00 00 00 00 00 |................

00 00 00 00 00 00 00 00 00 00 00 00 00 00 00 00 |................

00 00 00 00 00 00 00 00 00 00 00 00 00 00 00 00 |................

00 00 00 00 9F B5 01 04 70 00 00 00 00 00 00 00 |.....?..p.......

00 00 00 00 00 00 00 00 00 00 00 00 00 00 00 00 |................

00 00 00 00 00 00 00 00 00 60 00 00 00 00 00 00 |.........`......

00 00 00 00 00 00 00 00 00 00 00 00 00 00 00 00 |................

00 00 00 00 00 00 00 00 00 00 00 00 00 00 00 00 |................

00 00 00 00 00 00 00 00 00 00 00 00 00 00 00 00 |................

00 00 00 00 00 00 00 00 00 00 00 00 00 00 00 00 |................

00 61 F3 01 04 C8 00 00 00 00 00 00 00 00 00 00 |.a?..?..........

00 00 00 00 00 00 00 00 00 00 00 00 00 00 00 00 |................

00 00 00 00 00 00 00 00 00 00 00 00 00 00 00 00 |................

00 00 00 00 00 00 00 00 00 00 00 00 00 00 00 00 |................

00 00 00 00 00 00 00 00 00 00 00 00 00 00 00 00 |................

00 30 00 00 00 00 00 00 00 00 00 00 00 00 00 00 |.0..............

00 00 00 00 00 00 00 00 00 00 00 00 00 00 00 00 |................

00 00 00 00 00 00 00 00 00 00 00 00 00 00 00 00 |................

00 00 00 00 00 00 00 00 00 00 00 00 00 00 00 00 |................

00 00 00 00 00 00 00 00 00 00 00 00 00 00 00 00 |................

00 00 00 00 00 00 00 00 00 00 00 00 00 00 00 00 |................

00 00 00 00 00 00 00 00 00 00 00 00 00 00 00 00 |................

00 00 00 00 00                                  |.....

[2023-09-07 04:10:02.703] 

[2023-09-07 04:10:02.705] MBS:addr: 1, regaddr = 0765, regnum = 100

[2023-09-07 04:10:02.705] Send Modbus data:



01 04 07 65 00 64 E0 8A                         |...e.d..

[2023-09-07 04:10:02.830] MBS:addr: 1, regaddr = 0765, regnum = 100

[2023-09-07 04:10:02.830] Send Modbus data:



01 04 07 65 00 64 E0 8A                         |...e.d..

[2023-09-07 04:10:02.962] ↑↑↑收到待解析设备的数据



01 04 C8 00 00 00 00 00 00 00 00 00 00 00 00 00 |..?.............

00 00 00 00 00 00 00 00 00 00 00 00 00 00 00 00 |................

00 00 00 00 00 00 00 00 00 00 00 00 00 00 00 00 |................

00 00 00 00 00 00 00 00 00 00 00 00 00 00 00 00 |................

00 00 00 00 00 00 00 00 00 00 00 30 00 00 00 00 |...........0....

00 00 00 00 00 00 00 00 00 00 00 00 00 00 00 00 |................

00 00 00 00 00 00 00 00 00 00 00 00 00 00 00 00 |................

00 00 00 00 00 00 00 00 00 00 00 00 00 00 00 00 |................

00 00 00 00 00 00 00 00 00 00 00 00 00 00 00 00 |................

00 00 00 00 00 00 00 00 00 00 00 00 00 00 00 00 |................

00 00 00 00 00 00 00 00 00 00 00 00 00 00 00 00 |................

00 00 00 00 00 00 00 00 00 00 00 00 00 00 00 00 |................

00 00 00 9F B5 01 04 C8 00 00 00 00 00 00 00 00 |....?..?........

00 00 00 00 00 00 00 00 00 00 00 00             |............

[2023-09-07 04:10:02.043] 

[2023-09-07 04:10:02.044] MBS:addr: 1, regaddr = 07c9, regnum = 56

[2023-09-07 04:10:02.044] Send Modbus data:



01 04 07 C9 00 38 20 92                         |.....8 .

[2023-09-07 04:10:02.166] MBS:addr: 1, regaddr = 07c9, regnum = 56

[2023-09-07 04:10:02.166] Send Modbus data:



01 04 07 C9 00 38 20 92                         |.....8 .

[2023-09-07 04:10:02.290] ↑↑↑收到待解析设备的数据



60 00 00 00 00 00 00 00 00 00 00 00 00 00 00 00 |`...............

00 00 00 00 00 00 00 00 00 00 00 00 00 00 00 00 |................

00 00 00 00 00 00 00 00 00 00 00 00 00 00 00 00 |................

00 00 00 00 00 00 00 00 00 00 00 00 00 00 00 00 |................

00 00 00 00 00 00 00 00 00 00 00 00 00 00 00 00 |................

00 00 00 00 00 00 00 00 00 00 00 00 00 00 00 00 |................

00 00 00 00 00 00 00 00 00 00 00 00 00 00 00 00 |................

00 00 00 00 00 00 00 00 FE 18 00 00 00 00 00 00 |................

00 00 00 00 00 00 00 00 00 00 00 00 00 00 00 00 |................

00 00 00 00 00 00 00 00 00 00 00 00 00 00 00 00 |................

00 00 00 00 00 9F B5                            |......?

[2023-09-07 04:10:02.371] 

[2023-09-07 04:10:02.372] MBS:addr: 1, regaddr = 0801, regnum = 100

[2023-09-07 04:10:02.372] Send Modbus data:



01 04 08 01 00 64 A2 41                         |.....d.A

[2023-09-07 04:10:03.494] MBS:addr: 1, regaddr = 0801, regnum = 100

[2023-09-07 04:10:03.494] Send Modbus data:



01 04 08 01 00 64 A2 41                         |.....d.A

[2023-09-07 04:10:03.618] MBS:addr: 1, regaddr = 0801, regnum = 100

[2023-09-07 04:10:03.618] Send Modbus data:



01 04 08 01 00 64 A2 41                         |.....d.A

[2023-09-07 04:10:03.742] ↑↑↑收到待解析设备的数据



01 04 C8 00 00 00 00 00 00 00 00 00 00 00 00 00 |..?.............

00 00 00 00 00 00 00 00 00 00 00 00 00 00 00 00 |................

00 00 00 00 00 00 00 00 00 00 00 00 00 00 00 00 |................

00 00 00 00 00 00 00 00 00 00 00 00 00 00 00 00 |................

00 00 00 00 00 00 00 00 00 00 00 80 00 00 00 00 |................

00 00 00 00 00 00 00 00 00 00 00 00 00 00 00 00 |................

00 00 00 00 00 00 00 00 00 00 00 00 00 00 00 00 |................

00 00 00 00 00 00 00 00 00 00 00 00 00 00 00 00 |................

00 00 00 00 00 00 00 00 00 00 00 00 00 00 00 00 |................

00 00 00 00 00 00 00 00 00 00 00 00 00 00 00 00 |................

00 00 00 00 00 00 00 00 00 00 00 00 00 00 00 00 |................

00 00 00 00 00 00 00 00 00 00 00 00 00 00 00 00 |................

00 00 00 00 9F B5                               |.....?

[2023-09-07 04:10:03.823] 

[2023-09-07 04:10:03.824] MBS:addr: 1, regaddr = 0865, regnum = 100

[2023-09-07 04:10:03.824] Send Modbus data:



01 04 08 65 00 64 E3 9E                         |...e.d..

[2023-09-07 04:10:03.946] ↑↑↑收到待解析设备的数据



01 04 70 00 00 00 00 00 00 00 00 00 00 00 00 00 |..p.............

00 00 00 00 00 00 00 00 00 00 00 00 00 00 00 00 |................

00 00 00 00 00 80 00 00 00 00 00 00 00 00 00 00 |................

00 00 00 00 00 00 00 00 00 00 00 00 00 00 00 00 |................

00 00 00 00 00 00 00 00 00 00 00 00 00 00 00 00 |................

00 00 00 00 00 00 00 00 00 00 00 00 00 00 00 00 |................

00 00 00 00 00 00 00 00 00 00 00 00 61 F3       |............a?

[2023-09-07 04:10:03.027] 

[2023-09-07 04:10:03.027] MBS:addr: 1, regaddr = 08c9, regnum = 56

[2023-09-07 04:10:03.027] Send Modbus data:



01 04 08 C9 00 38 23 86                         |.....8#.

[2023-09-07 04:10:03.150] MBS:addr: 1, regaddr = 08c9, regnum = 56

[2023-09-07 04:10:03.150] Send Modbus data:



01 04 08 C9 00 38 23 86                         |.....8#.

[2023-09-07 04:10:03.274] ↑↑↑收到待解析设备的数据



01 04 C8 00 00 00 00 00 00 00 00 00 00 00 00 00 |..?.............

00 C0 00 00 00 00 00 00 00 00 00 00 00 00 00 00 |.?..............

00 00 00 00 00 00 00 00 00 00 00 00 00 00 00 00 |................

00 00 00 00 00 00 00 00 00 00 00 00 00 00 00 00 |................

00 00 00 00 00 00 00 00 00 00 00 00 00 00 00 00 |................

00 00 00 00 00 00 00 00 00 00 00 00 00 00 00 00 |................

00 00 00 00 00 00 00 00 00 00 00 00 00 00 00 00 |................

00 00 00 00 00 00 00 00 00 00 00 00 00 00 00 00 |................

00 00 00 00 00 00 00 00 00 00 00 00 00 00 00 00 |................

00 00 00 00 00 00 00 00 00 00 00 00 00 00 00 00 |................

00 00 00 00 00 00 00 00 00 00 00 00 00 00 00 00 |................

00 00 00 00 00 00 00 00 00 00 00 00 00 AE FF    |.............?.

[2023-09-07 04:10:03.355] 

[2023-09-07 04:10:03.355] MBS:addr: 1, regaddr = 0901, regnum = 100

[2023-09-07 04:10:03.356] Send Modbus data:



01 04 09 01 00 64 A3 BD                         |.....d..

[2023-09-07 04:10:04.478] MBS:addr: 1, regaddr = 0901, regnum = 100

[2023-09-07 04:10:04.478] Send Modbus data:



01 04 09 01 00 64 A3 BD                         |.....d..

[2023-09-07 04:10:04.602] ↑↑↑收到待解析设备的数据



01 04 70 00 00 00 00 00 00 00 00 00 00 00 00 00 |..p.............

00 00 00 00 00 00 00 00 00 00 00 00 00 00 00 00 |................

00 00 00 00 00 00 00 00 00 00 00 00 00 00 00 00 |................

00 00 00 00 00 00 00 00 00 00 00 00 00 00 00 00 |................

00 00 00 00 00 00 00 00 00 00 00 00 00 00 00 00 |................

00 00 00 00 00 00 00 00 00 00 00 00 00 00 00 00 |................

00 00 00 00 00 00 00 00 00 00 00 00 00 00 00 00 |................

00 00 00 61 F3                                  |...a?

[2023-09-07 04:10:04.683] 

[2023-09-07 04:10:04.683] MBS:addr: 1, regaddr = 0965, regnum = 100

[2023-09-07 04:10:04.683] Send Modbus data:



01 04 09 65 00 64 E2 62                         |...e.d.b

[2023-09-07 04:10:04.806] MBS:addr: 1, regaddr = 0965, regnum = 100

[2023-09-07 04:10:04.806] Send Modbus data:



01 04 09 65 00 64 E2 62                         |...e.d.b

[2023-09-07 04:10:04.934] ↑↑↑收到待解析设备的数据



01 04 70 00 00 00 00 00 00 00 00 00 00 00 00 00 |..p.............

00 00 00 00 00 00 00 00 00 00 00 00 00 00 00 00 |................

00 00 00 00 00 00 00 00 00 00 00 00 00 00 00 00 |................

00 00 00 00 00 00 00 00 00 00 00 00 00 00 00 00 |................

00 00 00 00 00 00 00 00 00 00 00 00 00 00 00 00 |................

00 00 00 00 00 00 00 00 00 00 00 00 00 00 FC 06 |................

00 00 00 00 00 00 00 00 00 00 00 00 61 F3       |............a?

[2023-09-07 04:10:04.015] 

[2023-09-07 04:10:04.016] MBS:addr: 1, regaddr = 09c9, regnum = 56

[2023-09-07 04:10:04.016] Send Modbus data:



01 04 09 C9 00 38 22 7A                         |.....8"z

[2023-09-07 04:10:04.138] MBS:addr: 1, regaddr = 09c9, regnum = 56

[2023-09-07 04:10:04.138] Send Modbus data:



01 04 09 C9 00 38 22 7A                         |.....8"z

[2023-09-07 04:10:04.262] ↑↑↑收到待解析设备的数据



01 04 C8 00 00 00 00 00 00 00 00 00 00 00 00 00 |..?.............

00 00 00 00 00 00 00 00 00 00 00 00 00 00 00 00 |................

00 00 00 00 00 00 00 00 00 00 00 00 00 00 00 00 |................

00 00 00 00 00 00 00 00 00 00 00 00 00 00 00 00 |................

00 00 00 00 00 00 00 00 00 00 00 00 00 00 00 00 |................

00 00 00 00 00 00 00 00 00 00 00 00 00 00 00 00 |................

00 00 00 00 00 00 00 00 00 00 00 00 00 00 00 00 |................

00 00 00 00 00 00 00 00 00 00 00 00 00 00 00 00 |................

00 00 00 00 00 00 00 00 00 00 00 00 00 00 00 00 |................

00 00 00 00 00 00 00 00 00 00 00 00 00 00 00 00 |................

00 00 00 00 00 00 00 00 00 00 00 00 00 00 00 00 |................

00 00 00 00 00 00 00 00 00 00 00 00 00 00 F8 03 |................

00 00 00 00 9F B5                               |.....?

[2023-09-07 04:10:04.343] 

[2023-09-07 04:10:04.344] MBS:addr: 1, regaddr = 0a01, regnum = 100

[2023-09-07 04:10:04.344] Send Modbus data:



01 04 0A 01 00 64 A3 F9                         |.....d..

[2023-09-07 04:10:05.466] MBS:addr: 1, regaddr = 0a01, regnum = 100

[2023-09-07 04:10:05.466] Send Modbus data:



01 04 0A 01 00 64 A3 F9                         |.....d..

[2023-09-07 04:10:05.590] ↑↑↑收到待解析设备的数据



01 04 C8 00 00 00 00 00 00 00 00 00 00 00 00 00 |..?.............

00 00 00 00 00 00 00 00 00 00 00 00 00 00 00 00 |................

00 00 00 00 00 00 00 00 00 00 00 00 00 00 00 00 |................

00 00 00 00 00 00 00 00 00 00 00 00 00 00 00 00 |................

00 00 00 00 00 00 00 00 00 00 00 00 00 00 00 00 |................

00 00 00 00 00 00 00 00 00 00 00 00 00 00 00 00 |................

00 00 00 00 00 00 00 00 00 00 00 00 00 00 00 00 |................

00 00 00 00 00 00 00 00 00 00 00 00 00 00 00 00 |................

00 00 00 00 00 00 00 00 00 00 00 00 00 00 00 00 |................

00 00 00 00 00 00 00 00 00 00 00 00 00 00 00 00 |................

00 00 00 00 00 00 00 00 00 00 00 00 00 00 00 00 |................

00 00 00 00 00 00 00 00 00 00 00 00 00 00 00 00 |................

00 00 00 00 00 00 00 00 00 00 00 9F B5          |............?

[2023-09-07 04:10:05.672] 

[2023-09-07 04:10:05.672] LD6910 解析成功

[2023-09-07 04:10:05.672] MBS:addr: 1, regaddr = 0a65, regnum = 100

[2023-09-07 04:10:05.672] Send Modbus data:



01 04 0A 65 00 64 E2 26                         |...e.d.&

[2023-09-07 04:10:05.794] MBS:addr: 1, regaddr = 0a65, regnum = 100

[2023-09-07 04:10:05.794] Send Modbus data:



01 04 0A 65 00 64 E2 26                         |...e.d.&

[2023-09-07 04:10:05.918] ↑↑↑收到待解析设备的数据



01 04 70 00 00 00 00 00 00 00 00 00 00 00 00 00 |..p.............

00 00 00 00 00 00 00 00 00 00 00 00 00 00 00 00 |................

00 00 00 00 00 00 00 00 00 00 00 00 00 00 00 00 |................

00 00 00 00 00 00 00 00 00 00 00 00 00 00 00 00 |................

00 00 00 00 00 00 00 00 00 00 00 00 00 00 00 00 |................

00 00 00 00 00 00 00 00 00 00 00 00 00 FE 0C 00 |................

00 00 00 00 00 00 00 00 00 00 00 00 61 F3       |............a?

[2023-09-07 04:10:05.999] 

[2023-09-07 04:10:05.999] MBS:addr: 1, regaddr = 0ac9, regnum = 56

[2023-09-07 04:10:05.999] Send Modbus data:



01 04 0A C9 00 38 22 3E                         |.....8">

[2023-09-07 04:10:05.122] MBS:addr: 1, regaddr = 0ac9, regnum = 56

[2023-09-07 04:10:05.122] Send Modbus data:



01 04 0A C9 00 38 22 3E                         |.....8">

[2023-09-07 04:10:05.246] MBS:addr: 1, regaddr = 0ac9, regnum = 56

[2023-09-07 04:10:05.246] Send Modbus data:



01 04 0A C9 00 38 22 3E                         |.....8">

[2023-09-07 04:10:05.370] ↑↑↑收到待解析设备的数据



01 04 C8 00 00 00 00 00 00 00 00 00 00 00 00 00 |..?.............

00 00 00 00 00 00 00 00 00 00 00 00 00 00 00 00 |................

00 00 00 00 00 00 00 00 00 00 00 00 00 00 00 00 |................

00 00 00 00 00 00 00 00 00 00 00 00 00 00 00 00 |................

00 00 00 00 00 00 00 00 00 00 00 00 00 00 00 00 |................

00 00 00 00 00 00 00 00 00 00 00 00 00 00 00 00 |................

00 00 00 00 00 00 00 00 00 00 00 00 00 00 00 00 |................

00 00 00 00 00 00 00 00 00 00 00 00 00 00 00 00 |................

00 00 00 00 00 00 00 00 00 00 00 00 00 00 00 00 |................

00 00 00 00 00 00 00 00 00 00 00 00 00 00 00 00 |................

00 00 00 00 00 00 00 00 00 00 00 00 00 00 00 00 |................

00 00 00 00 00 00 00 00 00 00 00 00 00 00 00 00 |................

00 00 00 00 00 00 00 00 00 00 00 9F B5 01 04 C8 |............?..?

00 00 00 00 00 00 00 00 00 00 00 00 00 00       |..............

[2023-09-07 04:10:06.451] 

[2023-09-07 04:10:06.452] MBS:addr: 1, regaddr = 0b01, regnum = 100

[2023-09-07 04:10:06.452] Send Modbus data:



01 04 0B 01 00 64 A2 05                         |.....d..

[2023-09-07 04:10:06.574] MBS:addr: 1, regaddr = 0b01, regnum = 100

[2023-09-07 04:10:06.574] Send Modbus data:



01 04 0B 01 00 64 A2 05                         |.....d..

[2023-09-07 04:10:06.698] ↑↑↑收到待解析设备的数据



60 00 00 00 00 00 00 00 00 00 00 00 00 00 00 00 |`...............

00 00 00 00 00 00 00 00 00 00 00 00 00 00 00 00 |................

00 00 00 00 00 00 00 00 00 00 00 00 00 00 00 00 |................

00 00 00 00 00 00 00 00 00 00 00 00 00 00 00 00 |................

00 00 00 00 00 00 00 00 00 00 00 00 00 00 00 00 |................

00 00 00 00 00 00 00 00 00 00 00 00 00 00 00 00 |................

00 00 00 00 00 00 00 00 00 00 00 00 00 00 00 00 |................

00 00 00 00 C0 00 00 00 00 00 00 00 00 00 00 00 |....?...........

00 00 00 00 00 00 00 00 00 00 00 00 00 00 00 00 |................

00 00 00 00 00 00 00 00 00 00 00 00 00 00 00 00 |................

00 00 00 00 00 00 00 00 00 00 00 9F B5          |............?

[2023-09-07 04:10:06.779] 

[2023-09-07 04:10:06.780] MBS:addr: 1, regaddr = 0b65, regnum = 100

[2023-09-07 04:10:06.780] Send Modbus data:



01 04 0B 65 00 64 E3 DA                         |...e.d..

[2023-09-07 04:10:06.902] ↑↑↑收到待解析设备的数据



01 04 70 00 00 00 00 00 00 00 00 00 00 00 00 00 |..p.............

00 00 00 00 00 00 00 00 00 00 00 00 00 00 00 00 |................

00 00 00 00 FE 0C 00 00 00 00 00 00 00 00 00 00 |................

00 00 00 00 00 00 00 00 00 00 00 00 00 00 00 00 |................

00 00 00 00 00 00 00 00 00 00 00 00 00 00 00 00 |................

00 00 00 00 00 00 00 00 00 00 00 00 00 00 00 00 |................

00 00 00 00 00 00 00 00 00 00 00 00 61 F3       |............a?

[2023-09-07 04:10:06.983] 

[2023-09-07 04:10:06.983] MBS:addr: 1, regaddr = 0bc9, regnum = 56

[2023-09-07 04:10:06.983] Send Modbus data:



01 04 0B C9 00 38 23 C2                         |.....8#.

[2023-09-07 04:10:06.106] MBS:addr: 1, regaddr = 0bc9, regnum = 56

[2023-09-07 04:10:06.106] Send Modbus data:



01 04 0B C9 00 38 23 C2                         |.....8#.

[2023-09-07 04:10:06.230] MBS:addr: 1, regaddr = 0bc9, regnum = 56

[2023-09-07 04:10:06.230] Send Modbus data:



01 04 0B C9 00 38 23 C2                         |.....8#.

[2023-09-07 04:10:06.354] ↑↑↑收到待解析设备的数据



01 04 C8 00 00 00 00 00 00 00 00 00 00 00 00 00 |..?.............

00 00 00 00 C0 00 00 00 00 00 00 00 00 00 00 00 |....?...........

00 00 00 00 00 00 00 00 00 00 00 00 00 00 00 00 |................

00 00 00 00 00 00 00 00 00 00 00 00 00 00 00 00 |................

00 00 00 00 00 00 00 00 00 00 00 00 00 00 00 00 |................

00 00 00 00 00 00 00 00 00 00 00 00 00 00 00 00 |................

00 00 00 00 00 00 00 00 00 00 00 00 00 00 00 00 |................

00 00 00 00 00 00 00 00 00 00 00 00 00 00 00 00 |................

00 00 00 00 00 00 00 00 00 00 00 00 00 00 00 00 |................

00 00 00 00 00 00 00 00 00 00 00 00 00 00 00 00 |................

00 00 00 00 00 00 00 00 00 00 00 00 00 00 00 00 |................

00 00 00 00 00 00 00 00 00 00 00 00 00 00 00 00 |................

[2023-09-07 04:10:07.435] 

[2023-09-07 04:10:07.436] MBS:addr: 1, regaddr = 0c01, regnum = 100

[2023-09-07 04:10:07.436] Send Modbus data:



01 04 0C 01 00 64 A3 71                         |.....d.q

[2023-09-07 04:10:07.558] ↑↑↑收到待解析设备的数据



01 04 70 00 00 00 00 00 00 00 00 00 00 00 00 00 |..p.............

00 00 00 00 00 00 00 00 00 00 00 00 00 00 00 00 |................

00 00 00 00 00 00 00 00 00 00 00 00 00 00 00 00 |................

00 00 00 00 00 00 00 00 00 00 00 00 00 00 00 00 |................

00 00 00 00 00 00 00 00 00 00 00 00 00 00 00 00 |................

00 00 00 00 00 00 00 00 00 00 00 00 00 00 00 00 |................

00 00 00 00 00 00 00 00 00 00 00 00 00 00 00 00 |................

00 00 00 61 F3                                  |...a?

[2023-09-07 04:10:07.639] 

[2023-09-07 04:10:07.639] MBS:addr: 1, regaddr = 0c65, regnum = 100

[2023-09-07 04:10:07.639] Send Modbus data:



01 04 0C 65 00 64 E2 AE                         |...e.d..

[2023-09-07 04:10:07.762] MBS:addr: 1, regaddr = 0c65, regnum = 100

[2023-09-07 04:10:07.762] Send Modbus data:



01 04 0C 65 00 64 E2 AE                         |...e.d..

[2023-09-07 04:10:07.886] ↑↑↑收到待解析设备的数据



01 04 70 00 00 00 00 00 00 00 00 00 00 00 00 00 |..p.............

00 00 00 00 00 00 00 00 00 00 00 00 00 00 00 00 |................

00 00 00 00 FC 0C 00 00 00 00 00 00 00 00 00 00 |................

00 00 00 00 00 00 00 00 00 00 00 00 00 00 00 00 |................

00 00 00 00 00 00 00 00 00 00 00 00 00 00 00 00 |................

00 00 00 00 00 00 00 00 00 00 00 00 00 00 00 00 |................

00 00 00 00 00 00 00 00 00 00 00 00 61 F3       |............a?

[2023-09-07 04:10:07.967] 

[2023-09-07 04:10:07.967] MBS:addr: 1, regaddr = 0cc9, regnum = 56

[2023-09-07 04:10:07.967] Send Modbus data:



01 04 0C C9 00 38 22 B6                         |.....8".

[2023-09-07 04:10:07.090] MBS:addr: 1, regaddr = 0cc9, regnum = 56

[2023-09-07 04:10:07.090] Send Modbus data:



01 04 0C C9 00 38 22 B6                         |.....8".

[2023-09-07 04:10:07.214] ↑↑↑收到待解析设备的数据



01 04 C8 00 00 00 00 00 00 00 00 00 00 00 00 00 |..?.............

00 00 00 00 00 00 00 00 00 00 00 00 00 00 00 00 |................

00 00 00 00 00 00 00 00 00 00 00 00 00 00 00 00 |................

00 00 00 00 00 00 00 00 00 00 00 00 00 00 00 00 |................

00 00 00 00 00 00 00 00 00 00 00 00 00 00 FF 30 |...............0

00 00 00 00 00 00 00 00 00 00 00 00 00 00 00 00 |................

00 00 00 00 00 00 00 00 00 00 00 00 00 00 00 00 |................

00 00 00 00 00 00 00 00 00 00 00 00 00 00 00 00 |................

00 00 00 00 00 00 00 00 00 00 00 00 00 00 00 00 |................

00 00 00 00 00 00 00 00 00 00 00 00 00 00 00 00 |................

00 00 00 00 00 00 00 00 00 00 00 00 00 00 00 00 |................

00 00 00 00 00 00 00 00 00 00 00 00 00 00 FB    |...............

[2023-09-07 04:10:07.295] 

[2023-09-07 04:10:07.295] MBS:addr: 1, regaddr = 0d01, regnum = 100

[2023-09-07 04:10:07.296] Send Modbus data:



01 04 0D 01 00 64 A2 8D                         |.....d..

[2023-09-07 04:10:08.426] MBS:addr: 1, regaddr = 0d01, regnum = 100

[2023-09-07 04:10:08.426] Send Modbus data:



01 04 0D 01 00 64 A2 8D                         |.....d..

[2023-09-07 04:10:08.550] ↑↑↑收到待解析设备的数据



01 04 70 00 00 00 00 00 00 00 00 00 00 00 00 00 |..p.............

00 00 00 00 00 00 00 00 00 00 00 00 00 00 00 00 |................

00 00 00 00 00 00 00 00 00 00 00 00 00 00 00 00 |................

00 00 00 00 00 00 00 00 00 00 00 00 00 00 00 00 |................

00 00 00 00 00 00 00 00 00 00 00 00 00 00 00 00 |................

00 00 00 00 00 00 00 00 00 00 00 00 00 00 00 C0 |...............?

00 00 00 00 00 00 00 00 00 00 00 00 61 F3       |............a?

[2023-09-07 04:10:08.631] 

[2023-09-07 04:10:08.631] MBS:addr: 1, regaddr = 0d65, regnum = 100

[2023-09-07 04:10:08.631] Send Modbus data:




[00:35:16.302]收←◆01 04 0D 65 00 64 E3 52                         |...e.d.R

[00:35:16.329]收←◆[2023-09-07 04:10:08.754] MBS:addr: 1, regaddr = 0d65, regnum = 100
[2023-09-07 04:10:08.754] Send Modbus data:


[00:35:16.394]收←◆01 04 0D 65 00 64 E3 52                         |...e.d.R

[00:35:16.455]收←◆[2023-09-07 04:10:08.878] MBS:addr: 1, regaddr = 0d65, regnum = 100
[2023-09-07 04:10:08.878] Send Modbus data:


[00:35:16.518]收←◆01 04 0D 65 00 64 E3 52                         |...e.d.R

[00:35:16.565]收←◆[2023-09-07 04:10:08.002] ↑↑↑收到待解析设备的数据


[00:35:16.745]收←◆01 04 C8 00 00 00 00 00 00 00 00 00 00 00 00 00 |..?.............
00 00 00 00 00 00 00 00 00 00 00 00 00 00 00 00 |................
00 00 00 00 00 00 00 00 00 00 00 00 00 00 00 00 |................
00 00 00 00 00 00 00 00 00 00 00 00 00 00 00 00 |................
00 00 00 00 00 00 00 00 00 00 00 00 00 00 00 00 |................
00 00 00 00 00 00 00 00 00 00 00 00 00 00 00 00 |................
00 00 00 00 00 00 00 00 00 00 00 00 00 00 00 00 |................
00 00 00 00 00 00 00 F0 00 00 00 00 00 00 00 00 |.......?........
00 00 00 00 00 00 00 00 00 00 00 00 00 00 00 00 |................
00 00 00 00 00 00 00 00 00 00 00 00 00 00 00 00 |................
00 00 00 00 00 00 00 00 00 00 00 00 00 00 00 00 |................
00 00 00 00 00 00 00 00 00 00 00 00 00 00 00 00 |................
00 00 00 00 9F B5                               |.....?
[2023-09-07 04:10:08.083] 
[2023-09-07 04:10:08.084] MBS:addr: 1, regaddr = 0dc9, regnum = 56
[2023-09-07 04:10:08.084] Send Modbus data:

01 04 0D C9 00 38 23 4A                         |.....8#J

[00:35:16.786]收←◆[2023-09-07 04:10:08.210] MBS:addr: 1, regaddr = 0dc9, regnum = 56
[2023-09-07 04:10:08.210] Send Modbus data:


[00:35:16.850]收←◆01 04 0D C9 00 38 23 4A                         |.....8#J

[00:35:16.897]收←◆[2023-09-07 04:10:08.334] ↑↑↑收到待解析设备的数据


[00:35:17.076]收←◆01 04 C8 00 00 00 00 00 00 00 00 00 00 00 00 00 |..?.............
00 00 00 00 00 00 00 00 00 00 00 00 00 00 00 00 |................
00 00 00 00 00 00 00 00 00 00 00 00 00 00 00 00 |................
00 00 00 00 00 00 00 00 00 00 00 00 00 00 00 00 |................
00 00 01 00 00 00 00 00 01 00 00 00 00 00 00 00 |................
00 00 00 00 00 80 80 00 00 00 00 00 00 00 00 00 |................
00 00 00 00 00 00 00 00 00 00 00 00 00 00 00 00 |................
00 00 00 00 00 00 00 00 00 00 00 00 00 00 00 00 |................
00 00 00 00 00 00 00 00 00 00 00 00 00 00 00 00 |................
00 00 00 00 00 00 00 00 00 00 00 00 00 00 00 00 |................
00 00 00 00 00 00 00 00 00 00 00 00 00 00 00 00 |................
00 00 00 00 00 00 00 00 00 00 00 00 00 00 00 00 |................
00 00 00 00 A3 DC                               |....＼
[2023-09-07 04:10:08.415] 
[2023-09-07 04:10:08.416] MBS:addr: 1, regaddr = 0e01, regnum = 100
[2023-09-07 04:10:08.416] Send Modbus data:

